Test: DebugFunctionCall
Target: spike64_2
---------------------------------[ Compile ]----------------------------------
+ riscv64-unknown-elf-gcc -g programs/checksum.c programs/tiny-malloc.c programs/infinite_loop.S -DDEFINE_MALLOC -DDEFINE_FREE -DCLINT=33554432 programs/entry.S programs/init.c -DNHARTS=2 -I ../env -T targets/RISC-V/spike64.lds -nostartfiles -mcmodel=medany -DXLEN=64 -o spike64_2_checksum-8000000000141129 -march=rv64imafd_zicsr -mabi=lp64
-------------------------[ /tmp/spike-9g2whvmk.log ]--------------------------
+ spike -p2 --isa RV64G --dm-auth --dm-no-abstract-fpr -m0x1212340000:0x10000000 --rbb-port 0 spike64_2_checksum-8000000000141129
Listening for remote bitbang connection on port 45615.
warning: tohost and fromhost symbols not in ELF; can't communicate with target
Received nothing. Quitting.

-------------------------[ /tmp/openocderahbnvq.log ]-------------------------
+ REMOTE_BITBANG_HOST=localhost REMOTE_BITBANG_PORT=45615 WORK_AREA=0x1212340000 USE_FREERTOS=0 /home/vsysuser/workspace/openocd_install/bin/openocd -d --command 'gdb_port 0' --command 'tcl_port 0' --command 'telnet_port disabled' -f targets/RISC-V/spike-2.cfg
Open On-Chip Debugger 0.12.0+dev-02555-g1bf1ac444 (2026-06-14-16:51)
Licensed under GNU GPL v2
For bug reports, read
	http://openocd.org/doc/doxygen/bugs.html
Debug: 3 4 options.c:348 parse_cmdline_args(): ARGV[0] = "/home/vsysuser/workspace/openocd_install/bin/openocd"
Debug: 4 4 options.c:348 parse_cmdline_args(): ARGV[1] = "-d"
Debug: 5 4 options.c:348 parse_cmdline_args(): ARGV[2] = "--command"
Debug: 6 4 options.c:348 parse_cmdline_args(): ARGV[3] = "gdb_port 0"
Debug: 7 4 options.c:348 parse_cmdline_args(): ARGV[4] = "--command"
Debug: 8 4 options.c:348 parse_cmdline_args(): ARGV[5] = "tcl_port 0"
Debug: 9 4 options.c:348 parse_cmdline_args(): ARGV[6] = "--command"
Debug: 10 4 options.c:348 parse_cmdline_args(): ARGV[7] = "telnet_port disabled"
Debug: 11 4 options.c:348 parse_cmdline_args(): ARGV[8] = "-f"
Debug: 12 4 options.c:348 parse_cmdline_args(): ARGV[9] = "targets/RISC-V/spike-2.cfg"
Debug: 13 4 options.c:233 add_default_dirs(): bindir=/home/vsysuser/workspace/openocd_install/bin
Debug: 14 4 options.c:234 add_default_dirs(): pkgdatadir=/home/vsysuser/workspace/openocd_install/share/openocd
Debug: 15 4 options.c:235 add_default_dirs(): exepath=/home/vsysuser/workspace/openocd_install/bin
Debug: 16 4 options.c:236 add_default_dirs(): bin2data=../share/openocd
Debug: 17 4 configuration.c:33 add_script_search_dir(): adding /home/vsysuser/workspace/.config/openocd
Debug: 18 4 configuration.c:33 add_script_search_dir(): adding /home/vsysuser/workspace/.openocd
Debug: 19 4 configuration.c:33 add_script_search_dir(): adding /home/vsysuser/workspace/openocd_install/bin/../share/openocd/site
Debug: 20 4 configuration.c:33 add_script_search_dir(): adding /home/vsysuser/workspace/openocd_install/bin/../share/openocd/scripts
Debug: 21 4 command.c:82 script_debug(): command - echo DEPRECATED! use 'gdb port', not 'gdb_port'
User : 22 4 command.c:618 handle_echo(): DEPRECATED! use 'gdb port', not 'gdb_port'
Debug: 23 4 command.c:82 script_debug(): command - gdb port 0
Debug: 24 4 command.c:82 script_debug(): command - echo DEPRECATED! use 'tcl port' not 'tcl_port'
User : 25 4 command.c:618 handle_echo(): DEPRECATED! use 'tcl port' not 'tcl_port'
Debug: 26 4 command.c:82 script_debug(): command - tcl port 0
Debug: 27 4 command.c:82 script_debug(): command - echo DEPRECATED! use 'telnet port', not 'telnet_port'
User : 28 4 command.c:618 handle_echo(): DEPRECATED! use 'telnet port', not 'telnet_port'
Debug: 29 4 command.c:82 script_debug(): command - telnet port disabled
Debug: 30 4 command.c:82 script_debug(): command - ocd_find targets/RISC-V/spike-2.cfg
Debug: 31 4 configuration.c:89 find_file(): found targets/RISC-V/spike-2.cfg
Debug: 32 4 command.c:82 script_debug(): command - adapter speed 10000
Debug: 33 4 adapter.c:261 adapter_config_khz(): handle adapter khz
Debug: 34 4 adapter.c:224 adapter_khz_to_speed(): convert khz to adapter specific speed value
Debug: 35 4 adapter.c:224 adapter_khz_to_speed(): convert khz to adapter specific speed value
Debug: 36 4 command.c:82 script_debug(): command - adapter driver remote_bitbang
Debug: 37 5 command.c:82 script_debug(): command - remote_bitbang host localhost
Debug: 38 5 command.c:82 script_debug(): command - remote_bitbang port 45615
Debug: 39 5 command.c:82 script_debug(): command - transport select
Warn : 40 5 transport.c:333 handle_transport_select(): DEPRECATED: auto-selecting transport "jtag". Use 'transport select jtag' to suppress this message.
Debug: 41 5 command.c:82 script_debug(): command - transport select
Debug: 42 5 command.c:82 script_debug(): command - jtag newtap riscv cpu -irlen 5 -expected-id 0xdeadbeef
Debug: 43 5 tcl.c:404 handle_jtag_newtap_args(): Creating New Tap, Chip: riscv, Tap: cpu, Dotted: riscv.cpu, 4 params
Debug: 44 5 core.c:1483 jtag_tap_init(): Created Tap: riscv.cpu @ abs position 0, irlen 5, capture: 0x1 mask: 0x3
Debug: 45 5 command.c:82 script_debug(): command - target create riscv.cpu0 riscv -chain-position riscv.cpu -coreid 0
Debug: 46 5 riscv.c:494 riscv_create_target(): [riscv.cpu0] riscv_create_target()
Debug: 47 5 command.c:82 script_debug(): command - target create riscv.cpu1 riscv -chain-position riscv.cpu -coreid 1
Debug: 48 5 riscv.c:494 riscv_create_target(): [riscv.cpu1] riscv_create_target()
Debug: 49 5 command.c:187 register_command(): command 'riscv' is already registered
Debug: 50 5 command.c:187 register_command(): command 'riscv dump_sample_buf' is already registered
Debug: 51 5 command.c:187 register_command(): command 'riscv info' is already registered
Debug: 52 5 command.c:187 register_command(): command 'riscv memory_sample' is already registered
Debug: 53 5 command.c:187 register_command(): command 'riscv repeat_read' is already registered
Debug: 54 5 command.c:187 register_command(): command 'riscv set_command_timeout_sec' is already registered
Debug: 55 5 command.c:187 register_command(): command 'riscv set_reset_timeout_sec' is already registered
Debug: 56 5 command.c:187 register_command(): command 'riscv set_mem_access' is already registered
Debug: 57 5 command.c:187 register_command(): command 'riscv expose_csrs' is already registered
Debug: 58 5 command.c:187 register_command(): command 'riscv expose_custom' is already registered
Debug: 59 5 command.c:187 register_command(): command 'riscv hide_csrs' is already registered
Debug: 60 5 command.c:187 register_command(): command 'riscv authdata_read' is already registered
Debug: 61 5 command.c:187 register_command(): command 'riscv authdata_write' is already registered
Debug: 62 5 command.c:187 register_command(): command 'riscv dmi_read' is already registered
Debug: 63 5 command.c:187 register_command(): command 'riscv dmi_write' is already registered
Debug: 64 5 command.c:187 register_command(): command 'riscv dm_read' is already registered
Debug: 65 5 command.c:187 register_command(): command 'riscv dm_write' is already registered
Debug: 66 5 command.c:187 register_command(): command 'riscv reset_delays' is already registered
Debug: 67 5 command.c:187 register_command(): command 'riscv resume_order' is already registered
Debug: 68 5 command.c:187 register_command(): command 'riscv set_ir' is already registered
Debug: 69 5 command.c:187 register_command(): command 'riscv use_bscan_tunnel' is already registered
Debug: 70 5 command.c:187 register_command(): command 'riscv set_bscan_tunnel_ir' is already registered
Debug: 71 5 command.c:187 register_command(): command 'riscv set_maskisr' is already registered
Debug: 72 5 command.c:187 register_command(): command 'riscv set_ebreakm' is already registered
Debug: 73 5 command.c:187 register_command(): command 'riscv set_ebreaks' is already registered
Debug: 74 5 command.c:187 register_command(): command 'riscv set_ebreaku' is already registered
Debug: 75 5 command.c:187 register_command(): command 'riscv etrigger' is already registered
Debug: 76 5 command.c:187 register_command(): command 'riscv icount' is already registered
Debug: 77 5 command.c:187 register_command(): command 'riscv itrigger' is already registered
Debug: 78 5 command.c:187 register_command(): command 'riscv exec_progbuf' is already registered
Debug: 79 5 command.c:187 register_command(): command 'riscv set_enable_trigger_feature' is already registered
Debug: 80 5 command.c:187 register_command(): command 'riscv reserve_trigger' is already registered
Debug: 81 5 command.c:187 register_command(): command 'riscv virt2phys_mode' is already registered
Debug: 82 5 command.c:187 register_command(): command 'riscv autofence' is already registered
Debug: 83 5 command.c:187 register_command(): command 'riscv smp' is already registered
Debug: 84 5 command.c:187 register_command(): command 'riscv smp_gdb' is already registered
Debug: 85 5 command.c:187 register_command(): command 'arm' is already registered
Debug: 86 5 command.c:187 register_command(): command 'arm semihosting' is already registered
Debug: 87 5 command.c:187 register_command(): command 'arm semihosting_redirect' is already registered
Debug: 88 5 command.c:187 register_command(): command 'arm semihosting_cmdline' is already registered
Debug: 89 5 command.c:187 register_command(): command 'arm semihosting_fileio' is already registered
Debug: 90 5 command.c:187 register_command(): command 'arm semihosting_resexit' is already registered
Debug: 91 5 command.c:187 register_command(): command 'arm semihosting_read_user_param' is already registered
Debug: 92 5 command.c:187 register_command(): command 'arm semihosting_basedir' is already registered
Debug: 93 6 command.c:82 script_debug(): command - echo DEPRECATED! use 'gdb report_data_abort', not 'gdb_report_data_abort'
User : 94 6 command.c:618 handle_echo(): DEPRECATED! use 'gdb report_data_abort', not 'gdb_report_data_abort'
Debug: 95 6 command.c:82 script_debug(): command - gdb report_data_abort enable
Debug: 96 6 command.c:82 script_debug(): command - echo DEPRECATED! use 'gdb report_register_access_error', not 'gdb_report_register_access_error'
User : 97 6 command.c:618 handle_echo(): DEPRECATED! use 'gdb report_register_access_error', not 'gdb_report_register_access_error'
Debug: 98 6 command.c:82 script_debug(): command - gdb report_register_access_error enable
Debug: 99 6 command.c:82 script_debug(): command - target names
Debug: 100 6 command.c:82 script_debug(): command - targets riscv.cpu0
Debug: 101 6 command.c:82 script_debug(): command - riscv expose_csrs 2288
Debug: 102 6 command.c:82 script_debug(): command - riscv expose_custom 1,12345-12348
Debug: 103 6 command.c:82 script_debug(): command - targets riscv.cpu1
Debug: 104 6 command.c:82 script_debug(): command - riscv expose_csrs 2288
Debug: 105 6 command.c:82 script_debug(): command - riscv expose_custom 1,12345-12348
Debug: 106 6 command.c:82 script_debug(): command - init
Debug: 107 6 command.c:82 script_debug(): command - target init
Debug: 108 6 command.c:82 script_debug(): command - target names
Debug: 109 6 command.c:82 script_debug(): command - riscv.cpu0 cget -event gdb-flash-erase-start
Debug: 110 6 command.c:82 script_debug(): command - riscv.cpu0 configure -event gdb-flash-erase-start reset init
Debug: 111 6 command.c:82 script_debug(): command - riscv.cpu0 cget -event gdb-flash-write-end
Debug: 112 6 command.c:82 script_debug(): command - riscv.cpu0 configure -event gdb-flash-write-end reset halt
Debug: 113 6 command.c:82 script_debug(): command - riscv.cpu0 cget -event gdb-attach
Debug: 114 6 command.c:82 script_debug(): command - riscv.cpu0 configure -event gdb-attach halt 1000
Debug: 115 6 command.c:82 script_debug(): command - riscv.cpu1 cget -event gdb-flash-erase-start
Debug: 116 6 command.c:82 script_debug(): command - riscv.cpu1 configure -event gdb-flash-erase-start reset init
Debug: 117 6 command.c:82 script_debug(): command - riscv.cpu1 cget -event gdb-flash-write-end
Debug: 118 6 command.c:82 script_debug(): command - riscv.cpu1 configure -event gdb-flash-write-end reset halt
Debug: 119 6 command.c:82 script_debug(): command - riscv.cpu1 cget -event gdb-attach
Debug: 120 6 command.c:82 script_debug(): command - riscv.cpu1 configure -event gdb-attach halt 1000
Debug: 121 6 target.c:1619 handle_target_init_command(): Initializing targets...
Debug: 122 6 riscv.c:666 riscv_init_target(): [riscv.cpu0] riscv_init_target()
Debug: 123 6 semihosting_common.c:111 semihosting_common_init():  
Debug: 124 6 riscv.c:666 riscv_init_target(): [riscv.cpu1] riscv_init_target()
Debug: 125 6 semihosting_common.c:111 semihosting_common_init():  
Info : 126 6 remote_bitbang.c:375 remote_bitbang_init(): Initializing remote_bitbang driver
Info : 127 6 remote_bitbang.c:297 remote_bitbang_init_tcp(): Connecting to localhost:45615
Info : 128 7 remote_bitbang.c:386 remote_bitbang_init(): remote_bitbang driver initialized
Info : 129 7 adapter.c:165 adapter_init(): Note: The adapter "remote_bitbang" doesn't support configurable speed
Debug: 130 7 openocd.c:133 handle_init_command(): Debug Adapter init complete
Debug: 131 7 command.c:82 script_debug(): command - transport init
Debug: 132 7 transport.c:274 handle_transport_init(): handle_transport_init
Debug: 133 7 core.c:838 jtag_add_reset(): SRST line released
Debug: 134 7 core.c:863 jtag_add_reset(): TRST line released
Debug: 135 7 core.c:329 jtag_call_event_callbacks(): jtag event: TAP reset
Debug: 136 7 command.c:82 script_debug(): command - jtag arp_init
Debug: 137 7 core.c:1517 jtag_init_inner(): Init JTAG chain
Debug: 138 7 core.c:329 jtag_call_event_callbacks(): jtag event: TAP reset
Debug: 139 7 core.c:1243 jtag_examine_chain(): DR scan interrogation for IDCODE/BYPASS
Debug: 140 7 core.c:329 jtag_call_event_callbacks(): jtag event: TAP reset
Info : 141 8 core.c:1141 jtag_examine_chain_display(): JTAG tap: riscv.cpu tap/device found: 0xdeadbeef (mfg: 0x777 (Fabric of Truth Inc), part: 0xeadb, ver: 0xd)
Debug: 142 8 core.c:1373 jtag_validate_ircapture(): IR capture validation scan
Debug: 143 8 core.c:1430 jtag_validate_ircapture(): riscv.cpu: IR capture 0x01
Debug: 144 8 command.c:82 script_debug(): command - dap init
Debug: 145 8 arm_dap.c:95 dap_init_all(): Initializing all DAPs ...
Debug: 146 8 openocd.c:150 handle_init_command(): Examining targets...
Debug: 147 8 target.c:688 target_examine_one(): [riscv.cpu0] Examination started
Debug: 148 8 target.c:1826 target_call_event_callbacks(): target event 19 (examine-start) for core riscv.cpu0
Debug: 149 8 riscv.c:2474 riscv_examine(): [riscv.cpu0] Starting examination
Debug: 150 8 riscv.c:447 dtmcs_scan(): TAP riscv.cpu: DTMCS: 0x0 -> 0x61
Debug: 151 9 riscv.c:2488 riscv_examine(): [riscv.cpu0] dtmcontrol=0x61
Debug: 152 9 riscv.c:2490 riscv_examine(): [riscv.cpu0] version=0x1
Debug: 153 9 riscv-013.c:2854 init_target(): [riscv.cpu0] Init.
Debug: 154 9 riscv-013.c:1999 examine(): [riscv.cpu0] dbgbase=0x0
Debug: 155 9 riscv.c:447 dtmcs_scan(): TAP riscv.cpu: DTMCS: 0x0 -> 0x61
Debug: 156 9 riscv-013.c:2007 examine(): [riscv.cpu0] dtmcontrol=0x61
Debug: 157 9 riscv-013.c:2008 examine(): [riscv.cpu0] dtmcs=0x61 {version=1_0 errinfo=not_implemented abits=6}
Warn : 158 9 riscv-013.c:2044 examine(): [riscv.cpu0] The target's debug bus (DMI) address width is lower than the minimum:
Warn : 159 9 riscv-013.c:2046 examine(): [riscv.cpu0]  found dtmcs.abits = 6; minimum is abits = 7.
Debug: 160 9 riscv-013.c:540 check_dbgbase_exists(): [riscv.cpu0] Searching for DM with DMI base address (dbgbase) = 0x0
Debug: 161 9 riscv-013.c:295 get_dm(): [riscv.cpu0] Coreid [0] Allocating new DM
Debug: 162 9 batch.c:291 riscv_batch_run_from(): [riscv.cpu0] Running batch of scans [0, 2)
Debug: 163 9 batch.c:255 log_batch(): 40b r 00000000 @10 -> + 00000000 @00; 0i
Debug: 164 9 batch.c:255 log_batch(): 40b - 00000000 @00 -> + 00000000 @10; 0i
Debug: 165 9 batch.c:199 log_dmi_decoded(): read: dmcontrol=0 {}
Debug: 166 9 riscv-013.c:1876 reset_dm(): [riscv.cpu0] Activating the DM.
Debug: 167 9 batch.c:291 riscv_batch_run_from(): [riscv.cpu0] Running batch of scans [0, 2)
Debug: 168 10 batch.c:255 log_batch(): 40b w 00000001 @10 -> + 00000000 @00; 0i
Debug: 169 10 batch.c:199 log_dmi_decoded(): write: dmcontrol=1 {dmactive=active}
Debug: 170 10 batch.c:255 log_batch(): 40b - 00000000 @00 -> + 00000001 @10; 0i
Debug: 171 10 riscv-013.c:1882 reset_dm(): [riscv.cpu0] Waiting for the DM to come out of reset.
Debug: 172 10 batch.c:291 riscv_batch_run_from(): [riscv.cpu0] Running batch of scans [0, 2)
Debug: 173 10 batch.c:255 log_batch(): 40b r 00000000 @10 -> + 00000000 @00; 0i
Debug: 174 10 batch.c:255 log_batch(): 40b - 00000000 @00 -> + 00000001 @10; 0i
Debug: 175 10 batch.c:199 log_dmi_decoded(): read: dmcontrol=1 {dmactive=active}
Debug: 176 10 riscv-013.c:1896 reset_dm(): [riscv.cpu0] DM successfully reset.
Debug: 177 10 batch.c:291 riscv_batch_run_from(): [riscv.cpu0] Running batch of scans [0, 2)
Debug: 178 10 batch.c:255 log_batch(): 40b w 07ffffc1 @10 -> + 00000000 @00; 0i
Debug: 179 10 batch.c:199 log_dmi_decoded(): write: dmcontrol=0x7ffffc1 {dmactive=active hartsello=0x3ff hasel=multiple hartselhi=0x3ff}
Debug: 180 10 batch.c:255 log_batch(): 40b - 00000000 @00 -> + 07ffffc1 @10; 0i
Debug: 181 10 batch.c:291 riscv_batch_run_from(): [riscv.cpu0] Running batch of scans [0, 2)
Debug: 182 11 batch.c:255 log_batch(): 40b r 00000000 @10 -> + 00000000 @00; 0i
Debug: 183 11 batch.c:255 log_batch(): 40b - 00000000 @00 -> + 00000001 @10; 0i
Debug: 184 11 batch.c:199 log_dmi_decoded(): read: dmcontrol=1 {dmactive=active}
Debug: 185 11 batch.c:291 riscv_batch_run_from(): [riscv.cpu0] Running batch of scans [0, 2)
Debug: 186 11 batch.c:255 log_batch(): 40b w 00000001 @10 -> + 00000000 @00; 0i
Debug: 187 11 batch.c:199 log_dmi_decoded(): write: dmcontrol=1 {dmactive=active}
Debug: 188 11 batch.c:255 log_batch(): 40b - 00000000 @00 -> + 00000001 @10; 0i
Debug: 189 11 batch.c:291 riscv_batch_run_from(): [riscv.cpu0] Running batch of scans [0, 2)
Debug: 190 12 batch.c:255 log_batch(): 40b r 00000000 @11 -> + 00000000 @00; 0i
Debug: 191 12 batch.c:255 log_batch(): 40b - 00000000 @00 -> + 004c0c02 @11; 0i
Debug: 192 12 batch.c:199 log_dmi_decoded(): read: dmstatus=0x4c0c02 {version=0_13 anyrunning=1 allrunning=1 anyhavereset=1 allhavereset=1 impebreak=1}
Error: 193 12 riscv-013.c:581 dmstatus_read(): Debugger is not authenticated to target Debug Module. (dmstatus=0x4c0c02). Use `riscv authdata_read` and `riscv authdata_write` commands to authenticate.
Error: 194 12 target.c:694 target_examine_one(): [riscv.cpu0] Examination failed
Debug: 195 12 target.c:695 target_examine_one(): [riscv.cpu0] examine() returned error code -4
Debug: 196 12 target.c:1826 target_call_event_callbacks(): target event 20 (examine-fail) for core riscv.cpu0
Warn : 197 12 target.c:743 target_examine(): target riscv.cpu0 examination failed
Debug: 198 12 target.c:688 target_examine_one(): [riscv.cpu1] Examination started
Debug: 199 12 target.c:1826 target_call_event_callbacks(): target event 19 (examine-start) for core riscv.cpu1
Debug: 200 12 riscv.c:2474 riscv_examine(): [riscv.cpu1] Starting examination
Debug: 201 13 riscv.c:447 dtmcs_scan(): TAP riscv.cpu: DTMCS: 0x0 -> 0x61
Debug: 202 13 riscv.c:2488 riscv_examine(): [riscv.cpu1] dtmcontrol=0x61
Debug: 203 13 riscv.c:2490 riscv_examine(): [riscv.cpu1] version=0x1
Debug: 204 13 riscv-013.c:2854 init_target(): [riscv.cpu1] Init.
Debug: 205 13 riscv-013.c:1999 examine(): [riscv.cpu1] dbgbase=0x0
Debug: 206 13 riscv.c:447 dtmcs_scan(): TAP riscv.cpu: DTMCS: 0x0 -> 0x61
Debug: 207 13 riscv-013.c:2007 examine(): [riscv.cpu1] dtmcontrol=0x61
Debug: 208 13 riscv-013.c:2008 examine(): [riscv.cpu1] dtmcs=0x61 {version=1_0 errinfo=not_implemented abits=6}
Warn : 209 13 riscv-013.c:2044 examine(): [riscv.cpu1] The target's debug bus (DMI) address width is lower than the minimum:
Warn : 210 13 riscv-013.c:2046 examine(): [riscv.cpu1]  found dtmcs.abits = 6; minimum is abits = 7.
Debug: 211 13 riscv-013.c:540 check_dbgbase_exists(): [riscv.cpu1] Searching for DM with DMI base address (dbgbase) = 0x0
Debug: 212 13 batch.c:291 riscv_batch_run_from(): [riscv.cpu1] Running batch of scans [0, 2)
Debug: 213 13 batch.c:255 log_batch(): 40b w 07ffffc1 @10 -> + 00000000 @00; 0i
Debug: 214 13 batch.c:199 log_dmi_decoded(): write: dmcontrol=0x7ffffc1 {dmactive=active hartsello=0x3ff hasel=multiple hartselhi=0x3ff}
Debug: 215 13 batch.c:255 log_batch(): 40b - 00000000 @00 -> + 07ffffc1 @10; 0i
Debug: 216 13 batch.c:291 riscv_batch_run_from(): [riscv.cpu1] Running batch of scans [0, 2)
Debug: 217 14 batch.c:255 log_batch(): 40b r 00000000 @10 -> + 00000000 @00; 0i
Debug: 218 14 batch.c:255 log_batch(): 40b - 00000000 @00 -> + 00000001 @10; 0i
Debug: 219 14 batch.c:199 log_dmi_decoded(): read: dmcontrol=1 {dmactive=active}
Debug: 220 14 batch.c:291 riscv_batch_run_from(): [riscv.cpu1] Running batch of scans [0, 2)
Debug: 221 14 batch.c:255 log_batch(): 40b r 00000000 @16 -> + 00000000 @00; 0i
Debug: 222 14 batch.c:255 log_batch(): 40b - 00000000 @00 -> + 02000002 @16; 0i
Debug: 223 14 batch.c:199 log_dmi_decoded(): read: abstractcs=0x2000002 {datacount=2 progbufsize=2}
Debug: 224 14 riscv-013.c:1824 wait_for_idle_if_needed(): [riscv.cpu1] abstractcs=0x2000002 {datacount=2 relaxedpriv=full_checks busy=ready progbufsize=2 cmderr=none}
Debug: 225 14 batch.c:291 riscv_batch_run_from(): [riscv.cpu1] Running batch of scans [0, 2)
Debug: 226 14 batch.c:255 log_batch(): 40b w 00000001 @10 -> + 00000000 @00; 0i
Debug: 227 15 batch.c:199 log_dmi_decoded(): write: dmcontrol=1 {dmactive=active}
Debug: 228 15 batch.c:255 log_batch(): 40b - 00000000 @00 -> + 00000001 @10; 0i
Debug: 229 15 batch.c:291 riscv_batch_run_from(): [riscv.cpu1] Running batch of scans [0, 2)
Debug: 230 15 batch.c:255 log_batch(): 40b r 00000000 @11 -> + 00000000 @00; 0i
Debug: 231 15 batch.c:255 log_batch(): 40b - 00000000 @00 -> + 004c0c02 @11; 0i
Debug: 232 15 batch.c:199 log_dmi_decoded(): read: dmstatus=0x4c0c02 {version=0_13 anyrunning=1 allrunning=1 anyhavereset=1 allhavereset=1 impebreak=1}
Error: 233 15 riscv-013.c:581 dmstatus_read(): Debugger is not authenticated to target Debug Module. (dmstatus=0x4c0c02). Use `riscv authdata_read` and `riscv authdata_write` commands to authenticate.
Error: 234 15 target.c:694 target_examine_one(): [riscv.cpu1] Examination failed
Debug: 235 15 target.c:695 target_examine_one(): [riscv.cpu1] examine() returned error code -4
Debug: 236 15 target.c:1826 target_call_event_callbacks(): target event 20 (examine-fail) for core riscv.cpu1
Warn : 237 15 target.c:743 target_examine(): target riscv.cpu1 examination failed
Debug: 238 15 openocd.c:152 handle_init_command(): target examination failed
Debug: 239 15 command.c:82 script_debug(): command - flash init
Debug: 240 15 tcl.c:1489 handle_flash_init_command(): Initializing flash devices...
Debug: 241 15 command.c:82 script_debug(): command - nand init
Debug: 242 15 tcl.c:485 handle_nand_init_command(): Initializing NAND devices...
Debug: 243 15 command.c:82 script_debug(): command - pld init
Debug: 244 15 pld.c:337 handle_pld_init_command(): Initializing PLDs...
Debug: 245 15 command.c:82 script_debug(): command - tpiu init
Info : 246 15 gdb_server.c:3917 gdb_target_start(): [riscv.cpu0] starting gdb server on 0
Info : 247 15 server.c:313 add_service(): Listening on port 45531 for gdb connections
Info : 248 15 gdb_server.c:3917 gdb_target_start(): [riscv.cpu1] starting gdb server on 0
Info : 249 15 server.c:313 add_service(): Listening on port 36297 for gdb connections
Debug: 250 15 command.c:82 script_debug(): command - target names
Debug: 251 15 command.c:82 script_debug(): command - target names
Debug: 252 15 command.c:82 script_debug(): command - riscv.cpu0 cget -type
Debug: 253 15 command.c:82 script_debug(): command - riscv.cpu1 cget -type
Debug: 254 15 command.c:82 script_debug(): command - riscv authdata_read
Debug: 255 15 batch.c:291 riscv_batch_run_from(): [riscv.cpu1] Running batch of scans [0, 2)
Debug: 256 16 batch.c:255 log_batch(): 40b r 00000000 @11 -> + 00000000 @00; 0i
Debug: 257 16 batch.c:255 log_batch(): 40b - 00000000 @00 -> + 004c0c02 @11; 0i
Debug: 258 16 batch.c:199 log_dmi_decoded(): read: dmstatus=0x4c0c02 {version=0_13 anyrunning=1 allrunning=1 anyhavereset=1 allhavereset=1 impebreak=1}
Debug: 259 16 batch.c:291 riscv_batch_run_from(): [riscv.cpu1] Running batch of scans [0, 2)
Debug: 260 16 batch.c:255 log_batch(): 40b r 00000000 @30 -> + 00000000 @00; 0i
Debug: 261 16 batch.c:255 log_batch(): 40b - 00000000 @00 -> + 327b23c6 @30; 0i
Debug: 262 16 batch.c:199 log_dmi_decoded(): read: 
Debug: 263 16 command.c:82 script_debug(): command - riscv authdata_write 846930887
Debug: 264 16 batch.c:291 riscv_batch_run_from(): [riscv.cpu1] Running batch of scans [0, 2)
Debug: 265 16 batch.c:255 log_batch(): 40b r 00000000 @11 -> + 00000000 @00; 0i
Debug: 266 16 batch.c:255 log_batch(): 40b - 00000000 @00 -> + 004c0c02 @11; 0i
Debug: 267 16 batch.c:199 log_dmi_decoded(): read: dmstatus=0x4c0c02 {version=0_13 anyrunning=1 allrunning=1 anyhavereset=1 allhavereset=1 impebreak=1}
Debug: 268 17 batch.c:291 riscv_batch_run_from(): [riscv.cpu1] Running batch of scans [0, 2)
Debug: 269 17 batch.c:255 log_batch(): 40b w 327b23c7 @30 -> + 00000000 @00; 0i
Debug: 270 17 batch.c:199 log_dmi_decoded(): write: 
Debug: 271 17 batch.c:255 log_batch(): 40b - 00000000 @00 -> + 327b23c7 @30; 0i
Debug: 272 17 batch.c:291 riscv_batch_run_from(): [riscv.cpu1] Running batch of scans [0, 2)
Debug: 273 17 batch.c:255 log_batch(): 40b r 00000000 @11 -> + 00000000 @00; 0i
Debug: 274 17 batch.c:255 log_batch(): 40b - 00000000 @00 -> + 004c0c82 @11; 0i
Debug: 275 17 batch.c:199 log_dmi_decoded(): read: dmstatus=0x4c0c82 {version=0_13 anyrunning=1 allrunning=1 anyhavereset=1 allhavereset=1 impebreak=1 authenticated=true}
Info : 276 17 riscv-013.c:2201 riscv013_authdata_write(): [riscv.cpu1] authdata_write resulted in successful authentication
Debug: 277 17 target.c:688 target_examine_one(): [riscv.cpu1] Examination started
Debug: 278 17 target.c:1826 target_call_event_callbacks(): target event 19 (examine-start) for core riscv.cpu1
Debug: 279 17 riscv.c:2474 riscv_examine(): [riscv.cpu1] Starting examination
Debug: 280 18 riscv.c:447 dtmcs_scan(): TAP riscv.cpu: DTMCS: 0x0 -> 0x61
Debug: 281 18 riscv.c:2488 riscv_examine(): [riscv.cpu1] dtmcontrol=0x61
Debug: 282 18 riscv.c:2490 riscv_examine(): [riscv.cpu1] version=0x1
Debug: 283 18 riscv-013.c:1999 examine(): [riscv.cpu1] dbgbase=0x0
Debug: 284 18 riscv.c:447 dtmcs_scan(): TAP riscv.cpu: DTMCS: 0x0 -> 0x61
Debug: 285 18 riscv-013.c:2007 examine(): [riscv.cpu1] dtmcontrol=0x61
Debug: 286 18 riscv-013.c:2008 examine(): [riscv.cpu1] dtmcs=0x61 {version=1_0 errinfo=not_implemented abits=6}
Warn : 287 18 riscv-013.c:2044 examine(): [riscv.cpu1] The target's debug bus (DMI) address width is lower than the minimum:
Warn : 288 18 riscv-013.c:2046 examine(): [riscv.cpu1]  found dtmcs.abits = 6; minimum is abits = 7.
Debug: 289 18 riscv-013.c:540 check_dbgbase_exists(): [riscv.cpu1] Searching for DM with DMI base address (dbgbase) = 0x0
Debug: 290 18 batch.c:291 riscv_batch_run_from(): [riscv.cpu1] Running batch of scans [0, 2)
Debug: 291 18 batch.c:255 log_batch(): 40b w 07ffffc1 @10 -> + 00000000 @00; 0i
Debug: 292 18 batch.c:199 log_dmi_decoded(): write: dmcontrol=0x7ffffc1 {dmactive=active hartsello=0x3ff hasel=multiple hartselhi=0x3ff}
Debug: 293 18 batch.c:255 log_batch(): 40b - 00000000 @00 -> + 07ffffc1 @10; 0i
Debug: 294 18 batch.c:291 riscv_batch_run_from(): [riscv.cpu1] Running batch of scans [0, 2)
Debug: 295 19 batch.c:255 log_batch(): 40b r 00000000 @10 -> + 00000000 @00; 0i
Debug: 296 19 batch.c:255 log_batch(): 40b - 00000000 @00 -> + 04010001 @10; 0i
Debug: 297 19 batch.c:199 log_dmi_decoded(): read: dmcontrol=0x4010001 {dmactive=active hartsello=1 hasel=multiple}
Debug: 298 19 batch.c:291 riscv_batch_run_from(): [riscv.cpu1] Running batch of scans [0, 2)
Debug: 299 19 batch.c:255 log_batch(): 40b r 00000000 @16 -> + 00000000 @00; 0i
Debug: 300 19 batch.c:255 log_batch(): 40b - 00000000 @00 -> + 02000002 @16; 0i
Debug: 301 19 batch.c:199 log_dmi_decoded(): read: abstractcs=0x2000002 {datacount=2 progbufsize=2}
Debug: 302 19 riscv-013.c:1824 wait_for_idle_if_needed(): [riscv.cpu1] abstractcs=0x2000002 {datacount=2 relaxedpriv=full_checks busy=ready progbufsize=2 cmderr=none}
Debug: 303 19 batch.c:291 riscv_batch_run_from(): [riscv.cpu1] Running batch of scans [0, 2)
Debug: 304 19 batch.c:255 log_batch(): 40b w 00000001 @10 -> + 00000000 @00; 0i
Debug: 305 19 batch.c:199 log_dmi_decoded(): write: dmcontrol=1 {dmactive=active}
Debug: 306 19 batch.c:255 log_batch(): 40b - 00000000 @00 -> + 00000001 @10; 0i
Debug: 307 19 batch.c:291 riscv_batch_run_from(): [riscv.cpu1] Running batch of scans [0, 2)
Debug: 308 20 batch.c:255 log_batch(): 40b r 00000000 @11 -> + 00000000 @00; 0i
Debug: 309 20 batch.c:255 log_batch(): 40b - 00000000 @00 -> + 004c0c82 @11; 0i
Debug: 310 20 batch.c:199 log_dmi_decoded(): read: dmstatus=0x4c0c82 {version=0_13 anyrunning=1 allrunning=1 anyhavereset=1 allhavereset=1 impebreak=1 authenticated=true}
Debug: 311 20 batch.c:291 riscv_batch_run_from(): [riscv.cpu1] Running batch of scans [0, 2)
Debug: 312 20 batch.c:255 log_batch(): 40b w 10000001 @10 -> + 00000000 @00; 0i
Debug: 313 20 batch.c:199 log_dmi_decoded(): write: dmcontrol=0x10000001 {dmactive=active ackhavereset=ack}
Debug: 314 20 batch.c:255 log_batch(): 40b - 00000000 @00 -> + 10000001 @10; 0i
Debug: 315 20 batch.c:291 riscv_batch_run_from(): [riscv.cpu1] Running batch of scans [0, 2)
Debug: 316 20 batch.c:255 log_batch(): 40b w 00010001 @10 -> + 00000000 @00; 0i
Debug: 317 21 batch.c:199 log_dmi_decoded(): write: dmcontrol=0x10001 {dmactive=active hartsello=1}
Debug: 318 21 batch.c:255 log_batch(): 40b - 00000000 @00 -> + 00010001 @10; 0i
Debug: 319 21 batch.c:291 riscv_batch_run_from(): [riscv.cpu1] Running batch of scans [0, 2)
Debug: 320 21 batch.c:255 log_batch(): 40b r 00000000 @11 -> + 00000000 @00; 0i
Debug: 321 21 batch.c:255 log_batch(): 40b - 00000000 @00 -> + 004c0c82 @11; 0i
Debug: 322 21 batch.c:199 log_dmi_decoded(): read: dmstatus=0x4c0c82 {version=0_13 anyrunning=1 allrunning=1 anyhavereset=1 allhavereset=1 impebreak=1 authenticated=true}
Debug: 323 21 batch.c:291 riscv_batch_run_from(): [riscv.cpu1] Running batch of scans [0, 2)
Debug: 324 21 batch.c:255 log_batch(): 40b w 10010001 @10 -> + 00000000 @00; 0i
Debug: 325 21 batch.c:199 log_dmi_decoded(): write: dmcontrol=0x10010001 {dmactive=active hartsello=1 ackhavereset=ack}
Debug: 326 21 batch.c:255 log_batch(): 40b - 00000000 @00 -> + 10010001 @10; 0i
Debug: 327 21 riscv-013.c:1979 examine_dm(): [riscv.cpu1] Detected 2 harts.
Debug: 328 21 riscv-013.c:5409 riscv013_invalidate_cached_progbuf(): [riscv.cpu1] Invalidating progbuf cache
Debug: 329 21 batch.c:291 riscv_batch_run_from(): [riscv.cpu1] Running batch of scans [0, 2)
Debug: 330 22 batch.c:255 log_batch(): 40b r 00000000 @11 -> + 00000000 @00; 0i
Debug: 331 22 batch.c:255 log_batch(): 40b - 00000000 @00 -> + 00400c82 @11; 0i
Debug: 332 22 batch.c:199 log_dmi_decoded(): read: dmstatus=0x400c82 {version=0_13 anyrunning=1 allrunning=1 impebreak=1 authenticated=true}
Debug: 333 22 riscv-013.c:2070 examine(): [riscv.cpu1] dmstatus:  0x00400c82
Debug: 334 22 batch.c:291 riscv_batch_run_from(): [riscv.cpu1] Running batch of scans [0, 2)
Debug: 335 22 batch.c:255 log_batch(): 40b r 00000000 @12 -> + 00000000 @00; 0i
Debug: 336 22 batch.c:255 log_batch(): 40b - 00000000 @00 -> + 00112380 @12; 0i
Debug: 337 22 batch.c:199 log_dmi_decoded(): read: 
Debug: 338 22 batch.c:291 riscv_batch_run_from(): [riscv.cpu1] Running batch of scans [0, 2)
Debug: 339 22 batch.c:255 log_batch(): 40b r 00000000 @38 -> + 00000000 @00; 0i
Debug: 340 22 batch.c:255 log_batch(): 40b - 00000000 @00 -> + 00000000 @38; 0i
Debug: 341 22 batch.c:199 log_dmi_decoded(): read: sbcs=0 {}
Debug: 342 22 batch.c:291 riscv_batch_run_from(): [riscv.cpu1] Running batch of scans [0, 2)
Debug: 343 23 batch.c:255 log_batch(): 40b r 00000000 @16 -> + 00000000 @00; 0i
Debug: 344 23 batch.c:255 log_batch(): 40b - 00000000 @00 -> + 02000002 @16; 0i
Debug: 345 23 batch.c:199 log_dmi_decoded(): read: abstractcs=0x2000002 {datacount=2 progbufsize=2}
Info : 346 23 riscv-013.c:2102 examine(): [riscv.cpu1] datacount=2 progbufsize=2
Debug: 347 23 batch.c:291 riscv_batch_run_from(): [riscv.cpu1] Running batch of scans [0, 2)
Debug: 348 23 batch.c:255 log_batch(): 40b r 00000000 @11 -> + 00000000 @00; 0i
Debug: 349 23 batch.c:255 log_batch(): 40b - 00000000 @00 -> + 00400c82 @11; 0i
Debug: 350 23 batch.c:199 log_dmi_decoded(): read: dmstatus=0x400c82 {version=0_13 anyrunning=1 allrunning=1 impebreak=1 authenticated=true}
Debug: 351 23 riscv-013.c:5185 select_prepped_harts(): [riscv.cpu1] index=1, prepped=1
Debug: 352 23 riscv-013.c:5185 select_prepped_harts(): [riscv.cpu1] index=0, prepped=0
Debug: 353 23 riscv-013.c:5239 riscv013_halt_go(): [riscv.cpu1] halting hart
Debug: 354 23 batch.c:291 riscv_batch_run_from(): [riscv.cpu1] Running batch of scans [0, 2)
Debug: 355 24 batch.c:255 log_batch(): 40b w 80010001 @10 -> + 00000000 @00; 0i
Debug: 356 24 batch.c:199 log_dmi_decoded(): write: dmcontrol=0x80010001 {dmactive=active hartsello=1 haltreq=1}
Debug: 357 24 batch.c:255 log_batch(): 40b - 00000000 @00 -> + 80010001 @10; 0i
Debug: 358 24 batch.c:291 riscv_batch_run_from(): [riscv.cpu1] Running batch of scans [0, 2)
Debug: 359 24 batch.c:255 log_batch(): 40b r 00000000 @11 -> + 00000000 @00; 0i
Debug: 360 24 batch.c:255 log_batch(): 40b - 00000000 @00 -> + 00400382 @11; 0i
Debug: 361 24 batch.c:199 log_dmi_decoded(): read: dmstatus=0x400382 {version=0_13 impebreak=1 authenticated=true anyhalted=1 allhalted=1}
Debug: 362 24 batch.c:291 riscv_batch_run_from(): [riscv.cpu1] Running batch of scans [0, 2)
Debug: 363 24 batch.c:255 log_batch(): 40b w 00010001 @10 -> + 00000000 @00; 0i
Debug: 364 24 batch.c:199 log_dmi_decoded(): write: dmcontrol=0x10001 {dmactive=active hartsello=1}
Debug: 365 24 batch.c:255 log_batch(): 40b - 00000000 @00 -> + 00010001 @10; 0i
Debug: 366 24 riscv_reg.c:697 riscv_reg_impl_init_cache(): [riscv.cpu1] create register cache for 4199 registers
Debug: 367 25 riscv-013.c:745 riscv013_execute_abstract_command(): [riscv.cpu1] access register=0x321008 {regno=0x1008 write=arg0 transfer=enabled postexec=disabled aarpostincrement=disabled aarsize=64bit}
Debug: 368 25 batch.c:291 riscv_batch_run_from(): [riscv.cpu1] Running batch of scans [0, 3)
Debug: 369 25 batch.c:255 log_batch(): 40b w 00321008 @17 -> + 00000000 @00; 0i
Debug: 370 25 batch.c:199 log_dmi_decoded(): write: command=0x321008 {control=0x321008}
Debug: 371 25 batch.c:255 log_batch(): 40b r 00000000 @16 -> + 00321008 @17; 0i
Debug: 372 25 batch.c:255 log_batch(): 40b - 00000000 @00 -> + 02001002 @16; 0i
Debug: 373 25 batch.c:199 log_dmi_decoded(): read: abstractcs=0x2001002 {datacount=2 busy=busy progbufsize=2}
Debug: 374 25 riscv-013.c:680 abstract_cmd_batch_check_and_clear_cmderr(): [riscv.cpu1] abstractcs=0x2001002 {datacount=2 relaxedpriv=full_checks busy=busy progbufsize=2 cmderr=none}
Debug: 375 25 batch.c:291 riscv_batch_run_from(): [riscv.cpu1] Running batch of scans [0, 2)
Debug: 376 26 batch.c:255 log_batch(): 40b r 00000000 @16 -> + 00000000 @00; 0i
Debug: 377 26 batch.c:255 log_batch(): 40b - 00000000 @00 -> + 02000002 @16; 0i
Debug: 378 26 batch.c:199 log_dmi_decoded(): read: abstractcs=0x2000002 {datacount=2 progbufsize=2}
Debug: 379 26 batch.h:86 riscv_scan_set_delay(): Abstract Command delay is set to 1.
Debug: 380 26 riscv_reg.c:979 riscv_reg_get(): [riscv.cpu1] Reading misa from target
Debug: 381 26 riscv-013.c:5109 riscv013_get_register(): [riscv.cpu1] reading register misa
Debug: 382 26 riscv-013.c:1633 register_read_direct(): [riscv.cpu1] Reading misa
Debug: 383 26 riscv-013.c:745 riscv013_execute_abstract_command(): [riscv.cpu1] access register=0x320301 {regno=0x301 write=arg0 transfer=enabled postexec=disabled aarpostincrement=disabled aarsize=64bit}
Debug: 384 26 batch.c:291 riscv_batch_run_from(): [riscv.cpu1] Running batch of scans [0, 3)
Debug: 385 26 batch.c:255 log_batch(): 40b w 00320301 @17 -> + 00000000 @00; 1i
Debug: 386 26 batch.c:199 log_dmi_decoded(): write: command=0x320301 {control=0x320301}
Debug: 387 26 batch.c:255 log_batch(): 40b r 00000000 @16 -> + 00320301 @17; 0i
Debug: 388 26 batch.c:255 log_batch(): 40b - 00000000 @00 -> + 02001002 @16; 0i
Debug: 389 26 batch.c:199 log_dmi_decoded(): read: abstractcs=0x2001002 {datacount=2 busy=busy progbufsize=2}
Debug: 390 26 riscv-013.c:680 abstract_cmd_batch_check_and_clear_cmderr(): [riscv.cpu1] abstractcs=0x2001002 {datacount=2 relaxedpriv=full_checks busy=busy progbufsize=2 cmderr=none}
Debug: 391 26 batch.c:291 riscv_batch_run_from(): [riscv.cpu1] Running batch of scans [0, 2)
Debug: 392 27 batch.c:255 log_batch(): 40b r 00000000 @16 -> + 00000000 @00; 0i
Debug: 393 27 batch.c:255 log_batch(): 40b - 00000000 @00 -> + 02000002 @16; 0i
Debug: 394 27 batch.c:199 log_dmi_decoded(): read: abstractcs=0x2000002 {datacount=2 progbufsize=2}
Debug: 395 27 batch.h:86 riscv_scan_set_delay(): Abstract Command delay is set to 2.
Debug: 396 27 batch.c:291 riscv_batch_run_from(): [riscv.cpu1] Running batch of scans [0, 3)
Debug: 397 27 batch.c:255 log_batch(): 40b r 00000000 @04 -> + 00000000 @00; 0i
Debug: 398 27 batch.c:255 log_batch(): 40b r 00000000 @05 -> + 00141129 @04; 0i
Debug: 399 27 batch.c:199 log_dmi_decoded(): read: 
Debug: 400 27 batch.c:255 log_batch(): 40b - 00000000 @00 -> + 80000000 @05; 0i
Debug: 401 27 batch.c:199 log_dmi_decoded(): read: 
Debug: 402 27 riscv-013.c:1652 register_read_direct(): [riscv.cpu1] misa = 0x8000000000141129
Debug: 403 27 riscv_reg.c:988 riscv_reg_get(): [riscv.cpu1] Read misa: 0x8000000000141129
Debug: 404 27 riscv-013_reg.c:249 check_misa_mxl(): [riscv.cpu1]  XLEN=64, misa=0x8000000000141129
Debug: 405 27 riscv_reg.c:979 riscv_reg_get(): [riscv.cpu1] Reading vlenb from target
Debug: 406 27 riscv-013.c:5109 riscv013_get_register(): [riscv.cpu1] reading register vlenb
Debug: 407 27 riscv-013.c:1633 register_read_direct(): [riscv.cpu1] Reading vlenb
Debug: 408 27 riscv-013.c:1131 prep_for_register_access(): [riscv.cpu1] Preparing mstatus to access vlenb
Debug: 409 27 riscv_reg.c:979 riscv_reg_get(): [riscv.cpu1] Reading mstatus from target
Debug: 410 27 riscv-013.c:5109 riscv013_get_register(): [riscv.cpu1] reading register mstatus
Debug: 411 27 riscv-013.c:1633 register_read_direct(): [riscv.cpu1] Reading mstatus
Debug: 412 27 riscv-013.c:745 riscv013_execute_abstract_command(): [riscv.cpu1] access register=0x320300 {regno=0x300 write=arg0 transfer=enabled postexec=disabled aarpostincrement=disabled aarsize=64bit}
Debug: 413 27 batch.c:291 riscv_batch_run_from(): [riscv.cpu1] Running batch of scans [0, 3)
Debug: 414 28 batch.c:255 log_batch(): 40b w 00320300 @17 -> + 00000000 @00; 2i
Debug: 415 28 batch.c:199 log_dmi_decoded(): write: command=0x320300 {control=0x320300}
Debug: 416 28 batch.c:255 log_batch(): 40b r 00000000 @16 -> + 00320300 @17; 0i
Debug: 417 28 batch.c:255 log_batch(): 40b - 00000000 @00 -> + 02000002 @16; 0i
Debug: 418 28 batch.c:199 log_dmi_decoded(): read: abstractcs=0x2000002 {datacount=2 progbufsize=2}
Debug: 419 28 riscv-013.c:680 abstract_cmd_batch_check_and_clear_cmderr(): [riscv.cpu1] abstractcs=0x2000002 {datacount=2 relaxedpriv=full_checks busy=ready progbufsize=2 cmderr=none}
Debug: 420 28 batch.c:291 riscv_batch_run_from(): [riscv.cpu1] Running batch of scans [0, 3)
Debug: 421 28 batch.c:255 log_batch(): 40b r 00000000 @04 -> + 00000000 @00; 0i
Debug: 422 28 batch.c:255 log_batch(): 40b r 00000000 @05 -> + 00000000 @04; 0i
Debug: 423 28 batch.c:199 log_dmi_decoded(): read: 
Debug: 424 28 batch.c:255 log_batch(): 40b - 00000000 @00 -> + 0000000a @05; 0i
Debug: 425 28 batch.c:199 log_dmi_decoded(): read: 
Debug: 426 28 riscv-013.c:1652 register_read_direct(): [riscv.cpu1] mstatus = 0xa00000000
Debug: 427 28 riscv_reg.c:988 riscv_reg_get(): [riscv.cpu1] Read mstatus: 0xa00000000
Debug: 428 28 riscv_reg.c:856 riscv_set_or_write_register(): [riscv.cpu1] Writing to target: mstatus <- 0xa00000200 (cacheable=false, valid=false, dirty=false)
Debug: 429 28 riscv-013.c:5125 riscv013_set_register(): [riscv.cpu1] writing 0xa00000200 to register mstatus
Debug: 430 28 riscv-013.c:1604 register_write_direct(): [riscv.cpu1] Writing 0xa00000200 to mstatus
Debug: 431 28 riscv-013.c:976 register_write_abstract(): [riscv.cpu1] access register=0x330300 {regno=0x300 write=register transfer=enabled postexec=disabled aarpostincrement=disabled aarsize=64bit}
Debug: 432 28 batch.c:291 riscv_batch_run_from(): [riscv.cpu1] Running batch of scans [0, 5)
Debug: 433 30 batch.c:255 log_batch(): 40b w 00000200 @04 -> + 00000000 @00; 0i
Debug: 434 30 batch.c:199 log_dmi_decoded(): write: 
Debug: 435 30 batch.c:255 log_batch(): 40b w 0000000a @05 -> + 00000200 @04; 0i
Debug: 436 30 batch.c:199 log_dmi_decoded(): write: 
Debug: 437 30 batch.c:255 log_batch(): 40b w 00330300 @17 -> + 0000000a @05; 2i
Debug: 438 30 batch.c:199 log_dmi_decoded(): write: command=0x330300 {control=0x330300}
Debug: 439 30 batch.c:255 log_batch(): 40b r 00000000 @16 -> + 00330300 @17; 0i
Debug: 440 30 batch.c:255 log_batch(): 40b - 00000000 @00 -> + 02000002 @16; 0i
Debug: 441 30 batch.c:199 log_dmi_decoded(): read: abstractcs=0x2000002 {datacount=2 progbufsize=2}
Debug: 442 30 riscv-013.c:680 abstract_cmd_batch_check_and_clear_cmderr(): [riscv.cpu1] abstractcs=0x2000002 {datacount=2 relaxedpriv=full_checks busy=ready progbufsize=2 cmderr=none}
Debug: 443 30 riscv-013.c:1623 register_write_direct(): [riscv.cpu1] mstatus <- 0xa00000200
Debug: 444 30 riscv_reg.c:872 riscv_set_or_write_register(): [riscv.cpu1] Wrote 0xa00000200 to mstatus (cacheable=false, valid=false, dirty=false)
Debug: 445 30 riscv-013.c:1151 prep_for_register_access(): [riscv.cpu1] Prepared to access vlenb (mstatus=0xa00000200)
Debug: 446 30 riscv-013.c:745 riscv013_execute_abstract_command(): [riscv.cpu1] access register=0x320c22 {regno=0xc22 write=arg0 transfer=enabled postexec=disabled aarpostincrement=disabled aarsize=64bit}
Debug: 447 30 batch.c:291 riscv_batch_run_from(): [riscv.cpu1] Running batch of scans [0, 3)
Debug: 448 30 batch.c:255 log_batch(): 40b w 00320c22 @17 -> + 00000000 @00; 2i
Debug: 449 30 batch.c:199 log_dmi_decoded(): write: command=0x320c22 {control=0x320c22}
Debug: 450 30 batch.c:255 log_batch(): 40b r 00000000 @16 -> + 00320c22 @17; 0i
Debug: 451 30 batch.c:255 log_batch(): 40b - 00000000 @00 -> + 02001302 @16; 0i
Debug: 452 30 batch.c:199 log_dmi_decoded(): read: abstractcs=0x2001302 {datacount=2 busy=busy progbufsize=2 cmderr=exception}
Debug: 453 30 riscv-013.c:680 abstract_cmd_batch_check_and_clear_cmderr(): [riscv.cpu1] abstractcs=0x2001302 {datacount=2 relaxedpriv=full_checks busy=busy progbufsize=2 cmderr=exception}
Debug: 454 30 batch.c:291 riscv_batch_run_from(): [riscv.cpu1] Running batch of scans [0, 2)
Debug: 455 31 batch.c:255 log_batch(): 40b r 00000000 @16 -> + 00000000 @00; 0i
Debug: 456 31 batch.c:255 log_batch(): 40b - 00000000 @00 -> + 02000302 @16; 0i
Debug: 457 31 batch.c:199 log_dmi_decoded(): read: abstractcs=0x2000302 {datacount=2 progbufsize=2 cmderr=exception}
Debug: 458 31 batch.h:86 riscv_scan_set_delay(): Abstract Command delay is set to 3.
Debug: 459 31 riscv-013.c:702 abstract_cmd_batch_check_and_clear_cmderr(): [riscv.cpu1] Abstract Command execution failed (abstractcs.cmderr = 3).
Debug: 460 31 batch.c:291 riscv_batch_run_from(): [riscv.cpu1] Running batch of scans [0, 2)
Debug: 461 31 batch.c:255 log_batch(): 40b w 00000700 @16 -> + 00000000 @00; 0i
Debug: 462 31 batch.c:199 log_dmi_decoded(): write: abstractcs=0x700 {cmderr=other}
Debug: 463 31 batch.c:255 log_batch(): 40b - 00000000 @00 -> + 00000700 @16; 0i
Debug: 464 31 riscv-013_reg.c:375 riscv013_reg_save(): [riscv.cpu1] Saving fp
Debug: 465 31 riscv_reg.c:979 riscv_reg_get(): [riscv.cpu1] Reading fp from target
Debug: 466 31 riscv-013.c:5109 riscv013_get_register(): [riscv.cpu1] reading register fp
Debug: 467 31 riscv-013.c:1633 register_read_direct(): [riscv.cpu1] Reading fp
Debug: 468 31 riscv-013.c:745 riscv013_execute_abstract_command(): [riscv.cpu1] access register=0x321008 {regno=0x1008 write=arg0 transfer=enabled postexec=disabled aarpostincrement=disabled aarsize=64bit}
Debug: 469 31 batch.c:291 riscv_batch_run_from(): [riscv.cpu1] Running batch of scans [0, 3)
Debug: 470 33 batch.c:255 log_batch(): 40b w 00321008 @17 -> + 00000000 @00; 3i
Debug: 471 33 batch.c:199 log_dmi_decoded(): write: command=0x321008 {control=0x321008}
Debug: 472 33 batch.c:255 log_batch(): 40b r 00000000 @16 -> + 00321008 @17; 0i
Debug: 473 33 batch.c:255 log_batch(): 40b - 00000000 @00 -> + 02000002 @16; 0i
Debug: 474 33 batch.c:199 log_dmi_decoded(): read: abstractcs=0x2000002 {datacount=2 progbufsize=2}
Debug: 475 33 riscv-013.c:680 abstract_cmd_batch_check_and_clear_cmderr(): [riscv.cpu1] abstractcs=0x2000002 {datacount=2 relaxedpriv=full_checks busy=ready progbufsize=2 cmderr=none}
Debug: 476 33 batch.c:291 riscv_batch_run_from(): [riscv.cpu1] Running batch of scans [0, 3)
Debug: 477 33 batch.c:255 log_batch(): 40b r 00000000 @04 -> + 00000000 @00; 0i
Debug: 478 33 batch.c:255 log_batch(): 40b r 00000000 @05 -> + 00000107 @04; 0i
Debug: 479 33 batch.c:199 log_dmi_decoded(): read: 
Debug: 480 33 batch.c:255 log_batch(): 40b - 00000000 @00 -> + 00000000 @05; 0i
Debug: 481 33 batch.c:199 log_dmi_decoded(): read: 
Debug: 482 33 riscv-013.c:1652 register_read_direct(): [riscv.cpu1] fp = 0x107
Debug: 483 33 riscv_reg.c:988 riscv_reg_get(): [riscv.cpu1] Read fp: 0x107
Debug: 484 33 program.c:33 riscv_program_write(): [riscv.cpu1] progbuf[00] = csrr    s0, vlenb
Debug: 485 33 batch.c:291 riscv_batch_run_from(): [riscv.cpu1] Running batch of scans [0, 2)
Debug: 486 34 batch.c:255 log_batch(): 40b w c2202473 @20 -> + 00000000 @00; 0i
Debug: 487 34 batch.c:199 log_dmi_decoded(): write: 
Debug: 488 34 batch.c:255 log_batch(): 40b - 00000000 @00 -> + c2202473 @20; 0i
Debug: 489 34 program.c:33 riscv_program_write(): [riscv.cpu1] progbuf[01] = ebreak
Debug: 490 34 batch.c:291 riscv_batch_run_from(): [riscv.cpu1] Running batch of scans [0, 2)
Debug: 491 34 batch.c:255 log_batch(): 40b w 00100073 @21 -> + 00000000 @00; 0i
Debug: 492 34 batch.c:199 log_dmi_decoded(): write: 
Debug: 493 34 batch.c:255 log_batch(): 40b - 00000000 @00 -> + 00100073 @21; 0i
Debug: 494 34 riscv-013.c:745 riscv013_execute_abstract_command(): [riscv.cpu1] access register=0x241000 {regno=0x1000 write=arg0 transfer=disabled postexec=enabled aarpostincrement=disabled aarsize=32bit}
Debug: 495 34 batch.c:291 riscv_batch_run_from(): [riscv.cpu1] Running batch of scans [0, 3)
Debug: 496 35 batch.c:255 log_batch(): 40b w 00241000 @17 -> + 00000000 @00; 3i
Debug: 497 35 batch.c:199 log_dmi_decoded(): write: command=0x241000 {control=0x241000}
Debug: 498 35 batch.c:255 log_batch(): 40b r 00000000 @16 -> + 00241000 @17; 0i
Debug: 499 35 batch.c:255 log_batch(): 40b - 00000000 @00 -> + 02001302 @16; 0i
Debug: 500 35 batch.c:199 log_dmi_decoded(): read: abstractcs=0x2001302 {datacount=2 busy=busy progbufsize=2 cmderr=exception}
Debug: 501 35 riscv-013.c:680 abstract_cmd_batch_check_and_clear_cmderr(): [riscv.cpu1] abstractcs=0x2001302 {datacount=2 relaxedpriv=full_checks busy=busy progbufsize=2 cmderr=exception}
Debug: 502 35 batch.c:291 riscv_batch_run_from(): [riscv.cpu1] Running batch of scans [0, 2)
Debug: 503 35 batch.c:255 log_batch(): 40b r 00000000 @16 -> + 00000000 @00; 0i
Debug: 504 35 batch.c:255 log_batch(): 40b - 00000000 @00 -> + 02000302 @16; 0i
Debug: 505 35 batch.c:199 log_dmi_decoded(): read: abstractcs=0x2000302 {datacount=2 progbufsize=2 cmderr=exception}
Debug: 506 35 batch.h:86 riscv_scan_set_delay(): Abstract Command delay is set to 4.
Debug: 507 36 riscv-013.c:702 abstract_cmd_batch_check_and_clear_cmderr(): [riscv.cpu1] Abstract Command execution failed (abstractcs.cmderr = 3).
Debug: 508 36 batch.c:291 riscv_batch_run_from(): [riscv.cpu1] Running batch of scans [0, 2)
Debug: 509 36 batch.c:255 log_batch(): 40b w 00000700 @16 -> + 00000000 @00; 0i
Debug: 510 36 batch.c:199 log_dmi_decoded(): write: abstractcs=0x700 {cmderr=other}
Debug: 511 36 batch.c:255 log_batch(): 40b - 00000000 @00 -> + 00000700 @16; 0i
Debug: 512 36 program.c:65 riscv_program_exec(): [riscv.cpu1] Unable to execute program 0x7ffe21e46320
Debug: 513 36 riscv-013.c:1163 cleanup_after_register_access(): [riscv.cpu1] Restoring mstatus to 0xa00000000
Debug: 514 36 riscv_reg.c:856 riscv_set_or_write_register(): [riscv.cpu1] Writing to target: mstatus <- 0xa00000000 (cacheable=false, valid=false, dirty=false)
Debug: 515 36 riscv-013.c:5125 riscv013_set_register(): [riscv.cpu1] writing 0xa00000000 to register mstatus
Debug: 516 36 riscv-013.c:1604 register_write_direct(): [riscv.cpu1] Writing 0xa00000000 to mstatus
Debug: 517 36 riscv-013.c:976 register_write_abstract(): [riscv.cpu1] access register=0x330300 {regno=0x300 write=register transfer=enabled postexec=disabled aarpostincrement=disabled aarsize=64bit}
Debug: 518 36 batch.c:291 riscv_batch_run_from(): [riscv.cpu1] Running batch of scans [0, 5)
Debug: 519 37 batch.c:255 log_batch(): 40b w 00000000 @04 -> + 00000000 @00; 0i
Debug: 520 37 batch.c:199 log_dmi_decoded(): write: 
Debug: 521 37 batch.c:255 log_batch(): 40b w 0000000a @05 -> + 00000000 @04; 0i
Debug: 522 37 batch.c:199 log_dmi_decoded(): write: 
Debug: 523 37 batch.c:255 log_batch(): 40b w 00330300 @17 -> + 0000000a @05; 4i
Debug: 524 37 batch.c:199 log_dmi_decoded(): write: command=0x330300 {control=0x330300}
Debug: 525 37 batch.c:255 log_batch(): 40b r 00000000 @16 -> + 00330300 @17; 0i
Debug: 526 37 batch.c:255 log_batch(): 40b - 00000000 @00 -> + 02000002 @16; 0i
Debug: 527 37 batch.c:199 log_dmi_decoded(): read: abstractcs=0x2000002 {datacount=2 progbufsize=2}
Debug: 528 37 riscv-013.c:680 abstract_cmd_batch_check_and_clear_cmderr(): [riscv.cpu1] abstractcs=0x2000002 {datacount=2 relaxedpriv=full_checks busy=ready progbufsize=2 cmderr=none}
Debug: 529 37 riscv-013.c:1623 register_write_direct(): [riscv.cpu1] mstatus <- 0xa00000000
Debug: 530 37 riscv_reg.c:872 riscv_set_or_write_register(): [riscv.cpu1] Wrote 0xa00000000 to mstatus (cacheable=false, valid=false, dirty=false)
Debug: 531 37 riscv_reg.c:979 riscv_reg_get(): [riscv.cpu1] Reading mtopi from target
Debug: 532 37 riscv-013.c:5109 riscv013_get_register(): [riscv.cpu1] reading register mtopi
Debug: 533 37 riscv-013.c:1633 register_read_direct(): [riscv.cpu1] Reading mtopi
Debug: 534 37 riscv-013.c:745 riscv013_execute_abstract_command(): [riscv.cpu1] access register=0x320fb0 {regno=0xfb0 write=arg0 transfer=enabled postexec=disabled aarpostincrement=disabled aarsize=64bit}
Debug: 535 37 batch.c:291 riscv_batch_run_from(): [riscv.cpu1] Running batch of scans [0, 3)
Debug: 536 37 batch.c:255 log_batch(): 40b w 00320fb0 @17 -> + 00000000 @00; 4i
Debug: 537 37 batch.c:199 log_dmi_decoded(): write: command=0x320fb0 {control=0x320fb0}
Debug: 538 37 batch.c:255 log_batch(): 40b r 00000000 @16 -> + 00320fb0 @17; 0i
Debug: 539 38 batch.c:255 log_batch(): 40b - 00000000 @00 -> + 02000302 @16; 0i
Debug: 540 38 batch.c:199 log_dmi_decoded(): read: abstractcs=0x2000302 {datacount=2 progbufsize=2 cmderr=exception}
Debug: 541 38 riscv-013.c:680 abstract_cmd_batch_check_and_clear_cmderr(): [riscv.cpu1] abstractcs=0x2000302 {datacount=2 relaxedpriv=full_checks busy=ready progbufsize=2 cmderr=exception}
Debug: 542 38 riscv-013.c:702 abstract_cmd_batch_check_and_clear_cmderr(): [riscv.cpu1] Abstract Command execution failed (abstractcs.cmderr = 3).
Debug: 543 38 batch.c:291 riscv_batch_run_from(): [riscv.cpu1] Running batch of scans [0, 2)
Debug: 544 38 batch.c:255 log_batch(): 40b w 00000700 @16 -> + 00000000 @00; 0i
Debug: 545 38 batch.c:199 log_dmi_decoded(): write: abstractcs=0x700 {cmderr=other}
Debug: 546 38 batch.c:255 log_batch(): 40b - 00000000 @00 -> + 00000700 @16; 0i
Debug: 547 38 riscv-013_reg.c:375 riscv013_reg_save(): [riscv.cpu1] Saving fp
Debug: 548 38 riscv_reg.c:974 riscv_reg_get(): [riscv.cpu1] Read fp: 0x107 (cached)
Debug: 549 38 program.c:33 riscv_program_write(): [riscv.cpu1] progbuf[00] = csrr    s0, mtopi
Debug: 550 38 batch.c:291 riscv_batch_run_from(): [riscv.cpu1] Running batch of scans [0, 2)
Debug: 551 39 batch.c:255 log_batch(): 40b w fb002473 @20 -> + 00000000 @00; 0i
Debug: 552 39 batch.c:199 log_dmi_decoded(): write: 
Debug: 553 39 batch.c:255 log_batch(): 40b - 00000000 @00 -> + fb002473 @20; 0i
Debug: 554 39 program.c:33 riscv_program_write(): [riscv.cpu1] progbuf[01] = ebreak
Debug: 555 39 riscv-013.c:5387 riscv013_write_progbuf(): [riscv.cpu1] Cache hit for 0x100073 @1
Debug: 556 39 riscv-013.c:745 riscv013_execute_abstract_command(): [riscv.cpu1] access register=0x241000 {regno=0x1000 write=arg0 transfer=disabled postexec=enabled aarpostincrement=disabled aarsize=32bit}
Debug: 557 39 batch.c:291 riscv_batch_run_from(): [riscv.cpu1] Running batch of scans [0, 3)
Debug: 558 40 batch.c:255 log_batch(): 40b w 00241000 @17 -> + 00000000 @00; 4i
Debug: 559 40 batch.c:199 log_dmi_decoded(): write: command=0x241000 {control=0x241000}
Debug: 560 40 batch.c:255 log_batch(): 40b r 00000000 @16 -> + 00241000 @17; 0i
Debug: 561 40 batch.c:255 log_batch(): 40b - 00000000 @00 -> + 02000302 @16; 0i
Debug: 562 40 batch.c:199 log_dmi_decoded(): read: abstractcs=0x2000302 {datacount=2 progbufsize=2 cmderr=exception}
Debug: 563 40 riscv-013.c:680 abstract_cmd_batch_check_and_clear_cmderr(): [riscv.cpu1] abstractcs=0x2000302 {datacount=2 relaxedpriv=full_checks busy=ready progbufsize=2 cmderr=exception}
Debug: 564 40 riscv-013.c:702 abstract_cmd_batch_check_and_clear_cmderr(): [riscv.cpu1] Abstract Command execution failed (abstractcs.cmderr = 3).
Debug: 565 40 batch.c:291 riscv_batch_run_from(): [riscv.cpu1] Running batch of scans [0, 2)
Debug: 566 40 batch.c:255 log_batch(): 40b w 00000700 @16 -> + 00000000 @00; 0i
Debug: 567 40 batch.c:199 log_dmi_decoded(): write: abstractcs=0x700 {cmderr=other}
Debug: 568 40 batch.c:255 log_batch(): 40b - 00000000 @00 -> + 00000700 @16; 0i
Debug: 569 40 program.c:65 riscv_program_exec(): [riscv.cpu1] Unable to execute program 0x7ffe21e46320
Debug: 570 42 riscv_reg.c:729 riscv_reg_impl_expose_csrs(): [riscv.cpu1] Exposing additional CSR 2288 (name=csr2288)
Debug: 571 42 riscv-013.c:1683 set_dcsr_ebreak(): [riscv.cpu1] Set dcsr.ebreak*
Debug: 572 42 riscv_reg.c:979 riscv_reg_get(): [riscv.cpu1] Reading dcsr from target
Debug: 573 42 riscv-013.c:5109 riscv013_get_register(): [riscv.cpu1] reading register dcsr
Debug: 574 42 riscv-013.c:1633 register_read_direct(): [riscv.cpu1] Reading dcsr
Debug: 575 42 riscv-013.c:745 riscv013_execute_abstract_command(): [riscv.cpu1] access register=0x2207b0 {regno=0x7b0 write=arg0 transfer=enabled postexec=disabled aarpostincrement=disabled aarsize=32bit}
Debug: 576 42 batch.c:291 riscv_batch_run_from(): [riscv.cpu1] Running batch of scans [0, 3)
Debug: 577 43 batch.c:255 log_batch(): 40b w 002207b0 @17 -> + 00000000 @00; 4i
Debug: 578 43 batch.c:199 log_dmi_decoded(): write: command=0x2207b0 {control=0x2207b0}
Debug: 579 43 batch.c:255 log_batch(): 40b r 00000000 @16 -> + 002207b0 @17; 0i
Debug: 580 43 batch.c:255 log_batch(): 40b - 00000000 @00 -> + 02000002 @16; 0i
Debug: 581 43 batch.c:199 log_dmi_decoded(): read: abstractcs=0x2000002 {datacount=2 progbufsize=2}
Debug: 582 43 riscv-013.c:680 abstract_cmd_batch_check_and_clear_cmderr(): [riscv.cpu1] abstractcs=0x2000002 {datacount=2 relaxedpriv=full_checks busy=ready progbufsize=2 cmderr=none}
Debug: 583 43 batch.c:291 riscv_batch_run_from(): [riscv.cpu1] Running batch of scans [0, 2)
Debug: 584 43 batch.c:255 log_batch(): 40b r 00000000 @04 -> + 00000000 @00; 0i
Debug: 585 43 batch.c:255 log_batch(): 40b - 00000000 @00 -> + 400000c3 @04; 0i
Debug: 586 43 batch.c:199 log_dmi_decoded(): read: 
Debug: 587 43 riscv-013.c:1652 register_read_direct(): [riscv.cpu1] dcsr = 0x400000c3
Debug: 588 43 riscv_reg.c:988 riscv_reg_get(): [riscv.cpu1] Read dcsr: 0x400000c3
Debug: 589 43 riscv_reg.c:856 riscv_set_or_write_register(): [riscv.cpu1] Writing to target: dcsr <- 0x4003b0c3 (cacheable=false, valid=true, dirty=false)
Debug: 590 43 riscv-013.c:5125 riscv013_set_register(): [riscv.cpu1] writing 0x4003b0c3 to register dcsr
Debug: 591 43 riscv-013.c:1604 register_write_direct(): [riscv.cpu1] Writing 0x4003b0c3 to dcsr
Debug: 592 43 riscv-013.c:976 register_write_abstract(): [riscv.cpu1] access register=0x2307b0 {regno=0x7b0 write=register transfer=enabled postexec=disabled aarpostincrement=disabled aarsize=32bit}
Debug: 593 43 batch.c:291 riscv_batch_run_from(): [riscv.cpu1] Running batch of scans [0, 4)
Debug: 594 44 batch.c:255 log_batch(): 40b w 4003b0c3 @04 -> + 00000000 @00; 0i
Debug: 595 44 batch.c:199 log_dmi_decoded(): write: 
Debug: 596 44 batch.c:255 log_batch(): 40b w 002307b0 @17 -> + 4003b0c3 @04; 4i
Debug: 597 44 batch.c:199 log_dmi_decoded(): write: command=0x2307b0 {control=0x2307b0}
Debug: 598 44 batch.c:255 log_batch(): 40b r 00000000 @16 -> + 002307b0 @17; 0i
Debug: 599 44 batch.c:255 log_batch(): 40b - 00000000 @00 -> + 02000002 @16; 0i
Debug: 600 44 batch.c:199 log_dmi_decoded(): read: abstractcs=0x2000002 {datacount=2 progbufsize=2}
Debug: 601 44 riscv-013.c:680 abstract_cmd_batch_check_and_clear_cmderr(): [riscv.cpu1] abstractcs=0x2000002 {datacount=2 relaxedpriv=full_checks busy=ready progbufsize=2 cmderr=none}
Debug: 602 44 riscv-013.c:1623 register_write_direct(): [riscv.cpu1] dcsr <- 0x4003b0c3
Debug: 603 44 riscv_reg.c:872 riscv_set_or_write_register(): [riscv.cpu1] Wrote 0x4003b0c3 to dcsr (cacheable=false, valid=false, dirty=false)
Debug: 604 44 riscv-013.c:5480 riscv013_step_or_resume_current_hart(): [riscv.cpu1] resuming (operation=resume)
Debug: 605 44 riscv_reg.c:781 riscv_reg_flush_all(): [riscv.cpu1] Flushing register cache
Debug: 606 44 riscv_reg.c:792 riscv_reg_flush_all(): [riscv.cpu1] fp is dirty; write back 0x107
Debug: 607 44 riscv_reg.c:856 riscv_set_or_write_register(): [riscv.cpu1] Writing to target: fp <- 0x107 (cacheable=true, valid=true, dirty=true)
Debug: 608 44 riscv-013.c:5125 riscv013_set_register(): [riscv.cpu1] writing 0x107 to register fp
Debug: 609 44 riscv-013.c:1604 register_write_direct(): [riscv.cpu1] Writing 0x107 to fp
Debug: 610 44 riscv-013.c:976 register_write_abstract(): [riscv.cpu1] access register=0x331008 {regno=0x1008 write=register transfer=enabled postexec=disabled aarpostincrement=disabled aarsize=64bit}
Debug: 611 44 batch.c:291 riscv_batch_run_from(): [riscv.cpu1] Running batch of scans [0, 5)
Debug: 612 45 batch.c:255 log_batch(): 40b w 00000107 @04 -> + 00000000 @00; 0i
Debug: 613 45 batch.c:199 log_dmi_decoded(): write: 
Debug: 614 45 batch.c:255 log_batch(): 40b w 00000000 @05 -> + 00000107 @04; 0i
Debug: 615 45 batch.c:199 log_dmi_decoded(): write: 
Debug: 616 45 batch.c:255 log_batch(): 40b w 00331008 @17 -> + 00000000 @05; 4i
Debug: 617 45 batch.c:199 log_dmi_decoded(): write: command=0x331008 {control=0x331008}
Debug: 618 45 batch.c:255 log_batch(): 40b r 00000000 @16 -> + 00331008 @17; 0i
Debug: 619 45 batch.c:255 log_batch(): 40b - 00000000 @00 -> + 02000002 @16; 0i
Debug: 620 45 batch.c:199 log_dmi_decoded(): read: abstractcs=0x2000002 {datacount=2 progbufsize=2}
Debug: 621 45 riscv-013.c:680 abstract_cmd_batch_check_and_clear_cmderr(): [riscv.cpu1] abstractcs=0x2000002 {datacount=2 relaxedpriv=full_checks busy=ready progbufsize=2 cmderr=none}
Debug: 622 45 riscv-013.c:1623 register_write_direct(): [riscv.cpu1] fp <- 0x107
Debug: 623 45 riscv_reg.c:872 riscv_set_or_write_register(): [riscv.cpu1] Wrote 0x107 to fp (cacheable=true, valid=true, dirty=false)
Debug: 624 45 riscv_reg.c:798 riscv_reg_flush_all(): [riscv.cpu1] Flush of register cache completed
Debug: 625 45 riscv_reg.c:904 riscv_reg_cache_invalidate_all(): [riscv.cpu1] Invalidating register cache.
Debug: 626 45 batch.c:291 riscv_batch_run_from(): [riscv.cpu1] Running batch of scans [0, 2)
Debug: 627 46 batch.c:255 log_batch(): 40b w 40010001 @10 -> + 00000000 @00; 0i
Debug: 628 46 batch.c:199 log_dmi_decoded(): write: dmcontrol=0x40010001 {dmactive=active hartsello=1 resumereq=1}
Debug: 629 46 batch.c:255 log_batch(): 40b - 00000000 @00 -> + 40010001 @10; 0i
Debug: 630 46 batch.c:291 riscv_batch_run_from(): [riscv.cpu1] Running batch of scans [0, 2)
Debug: 631 46 batch.c:255 log_batch(): 40b r 00000000 @11 -> + 00000000 @00; 0i
Debug: 632 46 batch.c:255 log_batch(): 40b - 00000000 @00 -> + 00430c82 @11; 0i
Debug: 633 46 batch.c:199 log_dmi_decoded(): read: dmstatus=0x430c82 {version=0_13 anyrunning=1 allrunning=1 anyresumeack=1 allresumeack=1 impebreak=1 authenticated=true}
Debug: 634 46 batch.c:291 riscv_batch_run_from(): [riscv.cpu1] Running batch of scans [0, 2)
Debug: 635 46 batch.c:255 log_batch(): 40b w 00010001 @10 -> + 00000000 @00; 0i
Debug: 636 46 batch.c:199 log_dmi_decoded(): write: dmcontrol=0x10001 {dmactive=active hartsello=1}
Debug: 637 46 batch.c:255 log_batch(): 40b - 00000000 @00 -> + 00010001 @10; 0i
Info : 638 46 riscv-013.c:2165 examine(): [riscv.cpu1] Examined RISC-V core
Info : 639 47 riscv-013.c:2166 examine(): [riscv.cpu1]  XLEN=64, misa=0x8000000000141129
Debug: 640 47 target.c:1826 target_call_event_callbacks(): target event 21 (examine-end) for core riscv.cpu1
Info : 641 47 target.c:704 target_examine_one(): [riscv.cpu1] Examination succeed
Debug: 642 47 target.c:688 target_examine_one(): [riscv.cpu0] Examination started
Debug: 643 47 target.c:1826 target_call_event_callbacks(): target event 19 (examine-start) for core riscv.cpu0
Debug: 644 47 riscv.c:2474 riscv_examine(): [riscv.cpu0] Starting examination
Debug: 645 47 riscv.c:447 dtmcs_scan(): TAP riscv.cpu: DTMCS: 0x0 -> 0x61
Debug: 646 47 riscv.c:2488 riscv_examine(): [riscv.cpu0] dtmcontrol=0x61
Debug: 647 47 riscv.c:2490 riscv_examine(): [riscv.cpu0] version=0x1
Debug: 648 47 riscv-013.c:1999 examine(): [riscv.cpu0] dbgbase=0x0
Debug: 649 47 riscv.c:447 dtmcs_scan(): TAP riscv.cpu: DTMCS: 0x0 -> 0x61
Debug: 650 47 riscv-013.c:2007 examine(): [riscv.cpu0] dtmcontrol=0x61
Debug: 651 47 riscv-013.c:2008 examine(): [riscv.cpu0] dtmcs=0x61 {version=1_0 errinfo=not_implemented abits=6}
Warn : 652 47 riscv-013.c:2044 examine(): [riscv.cpu0] The target's debug bus (DMI) address width is lower than the minimum:
Warn : 653 47 riscv-013.c:2046 examine(): [riscv.cpu0]  found dtmcs.abits = 6; minimum is abits = 7.
Debug: 654 47 riscv-013.c:540 check_dbgbase_exists(): [riscv.cpu0] Searching for DM with DMI base address (dbgbase) = 0x0
Debug: 655 47 batch.c:291 riscv_batch_run_from(): [riscv.cpu0] Running batch of scans [0, 2)
Debug: 656 48 batch.c:255 log_batch(): 40b w 00000001 @10 -> + 00000000 @00; 0i
Debug: 657 48 batch.c:199 log_dmi_decoded(): write: dmcontrol=1 {dmactive=active}
Debug: 658 48 batch.c:255 log_batch(): 40b - 00000000 @00 -> + 00000001 @10; 0i
Debug: 659 48 riscv-013.c:5409 riscv013_invalidate_cached_progbuf(): [riscv.cpu0] Invalidating progbuf cache
Debug: 660 48 batch.c:291 riscv_batch_run_from(): [riscv.cpu0] Running batch of scans [0, 2)
Debug: 661 48 batch.c:255 log_batch(): 40b r 00000000 @11 -> + 00000000 @00; 0i
Debug: 662 48 batch.c:255 log_batch(): 40b - 00000000 @00 -> + 00400c82 @11; 0i
Debug: 663 48 batch.c:199 log_dmi_decoded(): read: dmstatus=0x400c82 {version=0_13 anyrunning=1 allrunning=1 impebreak=1 authenticated=true}
Debug: 664 48 riscv-013.c:2070 examine(): [riscv.cpu0] dmstatus:  0x00400c82
Debug: 665 48 batch.c:291 riscv_batch_run_from(): [riscv.cpu0] Running batch of scans [0, 2)
Debug: 666 48 batch.c:255 log_batch(): 40b r 00000000 @12 -> + 00000000 @00; 0i
Debug: 667 48 batch.c:255 log_batch(): 40b - 00000000 @00 -> + 00112380 @12; 0i
Debug: 668 48 batch.c:199 log_dmi_decoded(): read: 
Debug: 669 48 batch.c:291 riscv_batch_run_from(): [riscv.cpu0] Running batch of scans [0, 2)
Debug: 670 49 batch.c:255 log_batch(): 40b r 00000000 @38 -> + 00000000 @00; 0i
Debug: 671 49 batch.c:255 log_batch(): 40b - 00000000 @00 -> + 00000000 @38; 0i
Debug: 672 49 batch.c:199 log_dmi_decoded(): read: sbcs=0 {}
Debug: 673 49 batch.c:291 riscv_batch_run_from(): [riscv.cpu0] Running batch of scans [0, 2)
Debug: 674 49 batch.c:255 log_batch(): 40b r 00000000 @16 -> + 00000000 @00; 0i
Debug: 675 49 batch.c:255 log_batch(): 40b - 00000000 @00 -> + 02000002 @16; 0i
Debug: 676 49 batch.c:199 log_dmi_decoded(): read: abstractcs=0x2000002 {datacount=2 progbufsize=2}
Info : 677 49 riscv-013.c:2102 examine(): [riscv.cpu0] datacount=2 progbufsize=2
Debug: 678 49 batch.c:291 riscv_batch_run_from(): [riscv.cpu0] Running batch of scans [0, 2)
Debug: 679 49 batch.c:255 log_batch(): 40b r 00000000 @11 -> + 00000000 @00; 0i
Debug: 680 49 batch.c:255 log_batch(): 40b - 00000000 @00 -> + 00400c82 @11; 0i
Debug: 681 49 batch.c:199 log_dmi_decoded(): read: dmstatus=0x400c82 {version=0_13 anyrunning=1 allrunning=1 impebreak=1 authenticated=true}
Debug: 682 50 riscv-013.c:5185 select_prepped_harts(): [riscv.cpu0] index=1, prepped=0
Debug: 683 50 riscv-013.c:5185 select_prepped_harts(): [riscv.cpu0] index=0, prepped=1
Debug: 684 50 riscv-013.c:5239 riscv013_halt_go(): [riscv.cpu0] halting hart
Debug: 685 50 batch.c:291 riscv_batch_run_from(): [riscv.cpu0] Running batch of scans [0, 2)
Debug: 686 50 batch.c:255 log_batch(): 40b w 80000001 @10 -> + 00000000 @00; 0i
Debug: 687 50 batch.c:199 log_dmi_decoded(): write: dmcontrol=0x80000001 {dmactive=active haltreq=1}
Debug: 688 50 batch.c:255 log_batch(): 40b - 00000000 @00 -> + 80000001 @10; 0i
Debug: 689 50 batch.c:291 riscv_batch_run_from(): [riscv.cpu0] Running batch of scans [0, 2)
Debug: 690 50 batch.c:255 log_batch(): 40b r 00000000 @11 -> + 00000000 @00; 0i
Debug: 691 50 batch.c:255 log_batch(): 40b - 00000000 @00 -> + 00400382 @11; 0i
Debug: 692 50 batch.c:199 log_dmi_decoded(): read: dmstatus=0x400382 {version=0_13 impebreak=1 authenticated=true anyhalted=1 allhalted=1}
Debug: 693 50 batch.c:291 riscv_batch_run_from(): [riscv.cpu0] Running batch of scans [0, 2)
Debug: 694 51 batch.c:255 log_batch(): 40b w 00000001 @10 -> + 00000000 @00; 0i
Debug: 695 51 batch.c:199 log_dmi_decoded(): write: dmcontrol=1 {dmactive=active}
Debug: 696 51 batch.c:255 log_batch(): 40b - 00000000 @00 -> + 00000001 @10; 0i
Debug: 697 51 riscv_reg.c:697 riscv_reg_impl_init_cache(): [riscv.cpu0] create register cache for 4199 registers
Debug: 698 51 riscv-013.c:745 riscv013_execute_abstract_command(): [riscv.cpu0] access register=0x321008 {regno=0x1008 write=arg0 transfer=enabled postexec=disabled aarpostincrement=disabled aarsize=64bit}
Debug: 699 51 batch.c:291 riscv_batch_run_from(): [riscv.cpu0] Running batch of scans [0, 3)
Debug: 700 51 batch.c:255 log_batch(): 40b w 00321008 @17 -> + 00000000 @00; 0i
Debug: 701 51 batch.c:199 log_dmi_decoded(): write: command=0x321008 {control=0x321008}
Debug: 702 51 batch.c:255 log_batch(): 40b r 00000000 @16 -> + 00321008 @17; 0i
Debug: 703 52 batch.c:255 log_batch(): 40b - 00000000 @00 -> + 02001002 @16; 0i
Debug: 704 52 batch.c:199 log_dmi_decoded(): read: abstractcs=0x2001002 {datacount=2 busy=busy progbufsize=2}
Debug: 705 52 riscv-013.c:680 abstract_cmd_batch_check_and_clear_cmderr(): [riscv.cpu0] abstractcs=0x2001002 {datacount=2 relaxedpriv=full_checks busy=busy progbufsize=2 cmderr=none}
Debug: 706 52 batch.c:291 riscv_batch_run_from(): [riscv.cpu0] Running batch of scans [0, 2)
Debug: 707 52 batch.c:255 log_batch(): 40b r 00000000 @16 -> + 00000000 @00; 0i
Debug: 708 52 batch.c:255 log_batch(): 40b - 00000000 @00 -> + 02000002 @16; 0i
Debug: 709 52 batch.c:199 log_dmi_decoded(): read: abstractcs=0x2000002 {datacount=2 progbufsize=2}
Debug: 710 52 batch.h:86 riscv_scan_set_delay(): Abstract Command delay is set to 1.
Debug: 711 52 riscv_reg.c:979 riscv_reg_get(): [riscv.cpu0] Reading misa from target
Debug: 712 52 riscv-013.c:5109 riscv013_get_register(): [riscv.cpu0] reading register misa
Debug: 713 52 riscv-013.c:1633 register_read_direct(): [riscv.cpu0] Reading misa
Debug: 714 52 riscv-013.c:745 riscv013_execute_abstract_command(): [riscv.cpu0] access register=0x320301 {regno=0x301 write=arg0 transfer=enabled postexec=disabled aarpostincrement=disabled aarsize=64bit}
Debug: 715 52 batch.c:291 riscv_batch_run_from(): [riscv.cpu0] Running batch of scans [0, 3)
Debug: 716 52 batch.c:255 log_batch(): 40b w 00320301 @17 -> + 00000000 @00; 1i
Debug: 717 53 batch.c:199 log_dmi_decoded(): write: command=0x320301 {control=0x320301}
Debug: 718 53 batch.c:255 log_batch(): 40b r 00000000 @16 -> + 00320301 @17; 0i
Debug: 719 53 batch.c:255 log_batch(): 40b - 00000000 @00 -> + 02001002 @16; 0i
Debug: 720 53 batch.c:199 log_dmi_decoded(): read: abstractcs=0x2001002 {datacount=2 busy=busy progbufsize=2}
Debug: 721 53 riscv-013.c:680 abstract_cmd_batch_check_and_clear_cmderr(): [riscv.cpu0] abstractcs=0x2001002 {datacount=2 relaxedpriv=full_checks busy=busy progbufsize=2 cmderr=none}
Debug: 722 53 batch.c:291 riscv_batch_run_from(): [riscv.cpu0] Running batch of scans [0, 2)
Debug: 723 53 batch.c:255 log_batch(): 40b r 00000000 @16 -> + 00000000 @00; 0i
Debug: 724 53 batch.c:255 log_batch(): 40b - 00000000 @00 -> + 02000002 @16; 0i
Debug: 725 53 batch.c:199 log_dmi_decoded(): read: abstractcs=0x2000002 {datacount=2 progbufsize=2}
Debug: 726 53 batch.h:86 riscv_scan_set_delay(): Abstract Command delay is set to 2.
Debug: 727 53 batch.c:291 riscv_batch_run_from(): [riscv.cpu0] Running batch of scans [0, 3)
Debug: 728 53 batch.c:255 log_batch(): 40b r 00000000 @04 -> + 00000000 @00; 0i
Debug: 729 53 batch.c:255 log_batch(): 40b r 00000000 @05 -> + 00141129 @04; 0i
Debug: 730 53 batch.c:199 log_dmi_decoded(): read: 
Debug: 731 53 batch.c:255 log_batch(): 40b - 00000000 @00 -> + 80000000 @05; 0i
Debug: 732 53 batch.c:199 log_dmi_decoded(): read: 
Debug: 733 53 riscv-013.c:1652 register_read_direct(): [riscv.cpu0] misa = 0x8000000000141129
Debug: 734 53 riscv_reg.c:988 riscv_reg_get(): [riscv.cpu0] Read misa: 0x8000000000141129
Debug: 735 53 riscv-013_reg.c:249 check_misa_mxl(): [riscv.cpu0]  XLEN=64, misa=0x8000000000141129
Debug: 736 53 riscv_reg.c:979 riscv_reg_get(): [riscv.cpu0] Reading vlenb from target
Debug: 737 53 riscv-013.c:5109 riscv013_get_register(): [riscv.cpu0] reading register vlenb
Debug: 738 53 riscv-013.c:1633 register_read_direct(): [riscv.cpu0] Reading vlenb
Debug: 739 53 riscv-013.c:1131 prep_for_register_access(): [riscv.cpu0] Preparing mstatus to access vlenb
Debug: 740 53 riscv_reg.c:979 riscv_reg_get(): [riscv.cpu0] Reading mstatus from target
Debug: 741 53 riscv-013.c:5109 riscv013_get_register(): [riscv.cpu0] reading register mstatus
Debug: 742 53 riscv-013.c:1633 register_read_direct(): [riscv.cpu0] Reading mstatus
Debug: 743 53 riscv-013.c:745 riscv013_execute_abstract_command(): [riscv.cpu0] access register=0x320300 {regno=0x300 write=arg0 transfer=enabled postexec=disabled aarpostincrement=disabled aarsize=64bit}
Debug: 744 53 batch.c:291 riscv_batch_run_from(): [riscv.cpu0] Running batch of scans [0, 3)
Debug: 745 54 batch.c:255 log_batch(): 40b w 00320300 @17 -> + 00000000 @00; 2i
Debug: 746 54 batch.c:199 log_dmi_decoded(): write: command=0x320300 {control=0x320300}
Debug: 747 54 batch.c:255 log_batch(): 40b r 00000000 @16 -> + 00320300 @17; 0i
Debug: 748 54 batch.c:255 log_batch(): 40b - 00000000 @00 -> + 02000002 @16; 0i
Debug: 749 54 batch.c:199 log_dmi_decoded(): read: abstractcs=0x2000002 {datacount=2 progbufsize=2}
Debug: 750 54 riscv-013.c:680 abstract_cmd_batch_check_and_clear_cmderr(): [riscv.cpu0] abstractcs=0x2000002 {datacount=2 relaxedpriv=full_checks busy=ready progbufsize=2 cmderr=none}
Debug: 751 54 batch.c:291 riscv_batch_run_from(): [riscv.cpu0] Running batch of scans [0, 3)
Debug: 752 54 batch.c:255 log_batch(): 40b r 00000000 @04 -> + 00000000 @00; 0i
Debug: 753 54 batch.c:255 log_batch(): 40b r 00000000 @05 -> + 00000000 @04; 0i
Debug: 754 54 batch.c:199 log_dmi_decoded(): read: 
Debug: 755 54 batch.c:255 log_batch(): 40b - 00000000 @00 -> + 0000000a @05; 0i
Debug: 756 54 batch.c:199 log_dmi_decoded(): read: 
Debug: 757 54 riscv-013.c:1652 register_read_direct(): [riscv.cpu0] mstatus = 0xa00000000
Debug: 758 54 riscv_reg.c:988 riscv_reg_get(): [riscv.cpu0] Read mstatus: 0xa00000000
Debug: 759 54 riscv_reg.c:856 riscv_set_or_write_register(): [riscv.cpu0] Writing to target: mstatus <- 0xa00000200 (cacheable=false, valid=false, dirty=false)
Debug: 760 54 riscv-013.c:5125 riscv013_set_register(): [riscv.cpu0] writing 0xa00000200 to register mstatus
Debug: 761 54 riscv-013.c:1604 register_write_direct(): [riscv.cpu0] Writing 0xa00000200 to mstatus
Debug: 762 54 riscv-013.c:976 register_write_abstract(): [riscv.cpu0] access register=0x330300 {regno=0x300 write=register transfer=enabled postexec=disabled aarpostincrement=disabled aarsize=64bit}
Debug: 763 54 batch.c:291 riscv_batch_run_from(): [riscv.cpu0] Running batch of scans [0, 5)
Debug: 764 55 batch.c:255 log_batch(): 40b w 00000200 @04 -> + 00000000 @00; 0i
Debug: 765 55 batch.c:199 log_dmi_decoded(): write: 
Debug: 766 55 batch.c:255 log_batch(): 40b w 0000000a @05 -> + 00000200 @04; 0i
Debug: 767 55 batch.c:199 log_dmi_decoded(): write: 
Debug: 768 55 batch.c:255 log_batch(): 40b w 00330300 @17 -> + 0000000a @05; 2i
Debug: 769 55 batch.c:199 log_dmi_decoded(): write: command=0x330300 {control=0x330300}
Debug: 770 55 batch.c:255 log_batch(): 40b r 00000000 @16 -> + 00330300 @17; 0i
Debug: 771 55 batch.c:255 log_batch(): 40b - 00000000 @00 -> + 02000002 @16; 0i
Debug: 772 55 batch.c:199 log_dmi_decoded(): read: abstractcs=0x2000002 {datacount=2 progbufsize=2}
Debug: 773 55 riscv-013.c:680 abstract_cmd_batch_check_and_clear_cmderr(): [riscv.cpu0] abstractcs=0x2000002 {datacount=2 relaxedpriv=full_checks busy=ready progbufsize=2 cmderr=none}
Debug: 774 55 riscv-013.c:1623 register_write_direct(): [riscv.cpu0] mstatus <- 0xa00000200
Debug: 775 55 riscv_reg.c:872 riscv_set_or_write_register(): [riscv.cpu0] Wrote 0xa00000200 to mstatus (cacheable=false, valid=false, dirty=false)
Debug: 776 55 riscv-013.c:1151 prep_for_register_access(): [riscv.cpu0] Prepared to access vlenb (mstatus=0xa00000200)
Debug: 777 55 riscv-013.c:745 riscv013_execute_abstract_command(): [riscv.cpu0] access register=0x320c22 {regno=0xc22 write=arg0 transfer=enabled postexec=disabled aarpostincrement=disabled aarsize=64bit}
Debug: 778 55 batch.c:291 riscv_batch_run_from(): [riscv.cpu0] Running batch of scans [0, 3)
Debug: 779 56 batch.c:255 log_batch(): 40b w 00320c22 @17 -> + 00000000 @00; 2i
Debug: 780 56 batch.c:199 log_dmi_decoded(): write: command=0x320c22 {control=0x320c22}
Debug: 781 56 batch.c:255 log_batch(): 40b r 00000000 @16 -> + 00320c22 @17; 0i
Debug: 782 56 batch.c:255 log_batch(): 40b - 00000000 @00 -> + 02001302 @16; 0i
Debug: 783 56 batch.c:199 log_dmi_decoded(): read: abstractcs=0x2001302 {datacount=2 busy=busy progbufsize=2 cmderr=exception}
Debug: 784 56 riscv-013.c:680 abstract_cmd_batch_check_and_clear_cmderr(): [riscv.cpu0] abstractcs=0x2001302 {datacount=2 relaxedpriv=full_checks busy=busy progbufsize=2 cmderr=exception}
Debug: 785 56 batch.c:291 riscv_batch_run_from(): [riscv.cpu0] Running batch of scans [0, 2)
Debug: 786 56 batch.c:255 log_batch(): 40b r 00000000 @16 -> + 00000000 @00; 0i
Debug: 787 56 batch.c:255 log_batch(): 40b - 00000000 @00 -> + 02000302 @16; 0i
Debug: 788 56 batch.c:199 log_dmi_decoded(): read: abstractcs=0x2000302 {datacount=2 progbufsize=2 cmderr=exception}
Debug: 789 56 batch.h:86 riscv_scan_set_delay(): Abstract Command delay is set to 3.
Debug: 790 56 riscv-013.c:702 abstract_cmd_batch_check_and_clear_cmderr(): [riscv.cpu0] Abstract Command execution failed (abstractcs.cmderr = 3).
Debug: 791 56 batch.c:291 riscv_batch_run_from(): [riscv.cpu0] Running batch of scans [0, 2)
Debug: 792 56 batch.c:255 log_batch(): 40b w 00000700 @16 -> + 00000000 @00; 0i
Debug: 793 56 batch.c:199 log_dmi_decoded(): write: abstractcs=0x700 {cmderr=other}
Debug: 794 57 batch.c:255 log_batch(): 40b - 00000000 @00 -> + 00000700 @16; 0i
Debug: 795 57 riscv-013_reg.c:375 riscv013_reg_save(): [riscv.cpu0] Saving fp
Debug: 796 57 riscv_reg.c:979 riscv_reg_get(): [riscv.cpu0] Reading fp from target
Debug: 797 57 riscv-013.c:5109 riscv013_get_register(): [riscv.cpu0] reading register fp
Debug: 798 57 riscv-013.c:1633 register_read_direct(): [riscv.cpu0] Reading fp
Debug: 799 57 riscv-013.c:745 riscv013_execute_abstract_command(): [riscv.cpu0] access register=0x321008 {regno=0x1008 write=arg0 transfer=enabled postexec=disabled aarpostincrement=disabled aarsize=64bit}
Debug: 800 57 batch.c:291 riscv_batch_run_from(): [riscv.cpu0] Running batch of scans [0, 3)
Debug: 801 57 batch.c:255 log_batch(): 40b w 00321008 @17 -> + 00000000 @00; 3i
Debug: 802 57 batch.c:199 log_dmi_decoded(): write: command=0x321008 {control=0x321008}
Debug: 803 57 batch.c:255 log_batch(): 40b r 00000000 @16 -> + 00321008 @17; 0i
Debug: 804 57 batch.c:255 log_batch(): 40b - 00000000 @00 -> + 02000002 @16; 0i
Debug: 805 57 batch.c:199 log_dmi_decoded(): read: abstractcs=0x2000002 {datacount=2 progbufsize=2}
Debug: 806 57 riscv-013.c:680 abstract_cmd_batch_check_and_clear_cmderr(): [riscv.cpu0] abstractcs=0x2000002 {datacount=2 relaxedpriv=full_checks busy=ready progbufsize=2 cmderr=none}
Debug: 807 57 batch.c:291 riscv_batch_run_from(): [riscv.cpu0] Running batch of scans [0, 3)
Debug: 808 58 batch.c:255 log_batch(): 40b r 00000000 @04 -> + 00000000 @00; 0i
Debug: 809 58 batch.c:255 log_batch(): 40b r 00000000 @05 -> + 00000007 @04; 0i
Debug: 810 58 batch.c:199 log_dmi_decoded(): read: 
Debug: 811 58 batch.c:255 log_batch(): 40b - 00000000 @00 -> + 00000000 @05; 0i
Debug: 812 58 batch.c:199 log_dmi_decoded(): read: 
Debug: 813 58 riscv-013.c:1652 register_read_direct(): [riscv.cpu0] fp = 0x7
Debug: 814 58 riscv_reg.c:988 riscv_reg_get(): [riscv.cpu0] Read fp: 0x7
Debug: 815 58 program.c:33 riscv_program_write(): [riscv.cpu0] progbuf[00] = csrr    s0, vlenb
Debug: 816 58 batch.c:291 riscv_batch_run_from(): [riscv.cpu0] Running batch of scans [0, 2)
Debug: 817 58 batch.c:255 log_batch(): 40b w c2202473 @20 -> + 00000000 @00; 0i
Debug: 818 58 batch.c:199 log_dmi_decoded(): write: 
Debug: 819 58 batch.c:255 log_batch(): 40b - 00000000 @00 -> + c2202473 @20; 0i
Debug: 820 58 program.c:33 riscv_program_write(): [riscv.cpu0] progbuf[01] = ebreak
Debug: 821 58 batch.c:291 riscv_batch_run_from(): [riscv.cpu0] Running batch of scans [0, 2)
Debug: 822 58 batch.c:255 log_batch(): 40b w 00100073 @21 -> + 00000000 @00; 0i
Debug: 823 58 batch.c:199 log_dmi_decoded(): write: 
Debug: 824 58 batch.c:255 log_batch(): 40b - 00000000 @00 -> + 00100073 @21; 0i
Debug: 825 58 riscv-013.c:745 riscv013_execute_abstract_command(): [riscv.cpu0] access register=0x241000 {regno=0x1000 write=arg0 transfer=disabled postexec=enabled aarpostincrement=disabled aarsize=32bit}
Debug: 826 58 batch.c:291 riscv_batch_run_from(): [riscv.cpu0] Running batch of scans [0, 3)
Debug: 827 59 batch.c:255 log_batch(): 40b w 00241000 @17 -> + 00000000 @00; 3i
Debug: 828 59 batch.c:199 log_dmi_decoded(): write: command=0x241000 {control=0x241000}
Debug: 829 59 batch.c:255 log_batch(): 40b r 00000000 @16 -> + 00241000 @17; 0i
Debug: 830 59 batch.c:255 log_batch(): 40b - 00000000 @00 -> + 02000302 @16; 0i
Debug: 831 59 batch.c:199 log_dmi_decoded(): read: abstractcs=0x2000302 {datacount=2 progbufsize=2 cmderr=exception}
Debug: 832 59 riscv-013.c:680 abstract_cmd_batch_check_and_clear_cmderr(): [riscv.cpu0] abstractcs=0x2000302 {datacount=2 relaxedpriv=full_checks busy=ready progbufsize=2 cmderr=exception}
Debug: 833 59 riscv-013.c:702 abstract_cmd_batch_check_and_clear_cmderr(): [riscv.cpu0] Abstract Command execution failed (abstractcs.cmderr = 3).
Debug: 834 59 batch.c:291 riscv_batch_run_from(): [riscv.cpu0] Running batch of scans [0, 2)
Debug: 835 59 batch.c:255 log_batch(): 40b w 00000700 @16 -> + 00000000 @00; 0i
Debug: 836 59 batch.c:199 log_dmi_decoded(): write: abstractcs=0x700 {cmderr=other}
Debug: 837 59 batch.c:255 log_batch(): 40b - 00000000 @00 -> + 00000700 @16; 0i
Debug: 838 59 program.c:65 riscv_program_exec(): [riscv.cpu0] Unable to execute program 0x7ffe21e46320
Debug: 839 59 riscv-013.c:1163 cleanup_after_register_access(): [riscv.cpu0] Restoring mstatus to 0xa00000000
Debug: 840 59 riscv_reg.c:856 riscv_set_or_write_register(): [riscv.cpu0] Writing to target: mstatus <- 0xa00000000 (cacheable=false, valid=false, dirty=false)
Debug: 841 59 riscv-013.c:5125 riscv013_set_register(): [riscv.cpu0] writing 0xa00000000 to register mstatus
Debug: 842 59 riscv-013.c:1604 register_write_direct(): [riscv.cpu0] Writing 0xa00000000 to mstatus
Debug: 843 59 riscv-013.c:976 register_write_abstract(): [riscv.cpu0] access register=0x330300 {regno=0x300 write=register transfer=enabled postexec=disabled aarpostincrement=disabled aarsize=64bit}
Debug: 844 59 batch.c:291 riscv_batch_run_from(): [riscv.cpu0] Running batch of scans [0, 5)
Debug: 845 60 batch.c:255 log_batch(): 40b w 00000000 @04 -> + 00000000 @00; 0i
Debug: 846 60 batch.c:199 log_dmi_decoded(): write: 
Debug: 847 60 batch.c:255 log_batch(): 40b w 0000000a @05 -> + 00000000 @04; 0i
Debug: 848 60 batch.c:199 log_dmi_decoded(): write: 
Debug: 849 60 batch.c:255 log_batch(): 40b w 00330300 @17 -> + 0000000a @05; 3i
Debug: 850 60 batch.c:199 log_dmi_decoded(): write: command=0x330300 {control=0x330300}
Debug: 851 60 batch.c:255 log_batch(): 40b r 00000000 @16 -> + 00330300 @17; 0i
Debug: 852 60 batch.c:255 log_batch(): 40b - 00000000 @00 -> + 02000002 @16; 0i
Debug: 853 60 batch.c:199 log_dmi_decoded(): read: abstractcs=0x2000002 {datacount=2 progbufsize=2}
Debug: 854 60 riscv-013.c:680 abstract_cmd_batch_check_and_clear_cmderr(): [riscv.cpu0] abstractcs=0x2000002 {datacount=2 relaxedpriv=full_checks busy=ready progbufsize=2 cmderr=none}
Debug: 855 60 riscv-013.c:1623 register_write_direct(): [riscv.cpu0] mstatus <- 0xa00000000
Debug: 856 60 riscv_reg.c:872 riscv_set_or_write_register(): [riscv.cpu0] Wrote 0xa00000000 to mstatus (cacheable=false, valid=false, dirty=false)
Debug: 857 60 riscv_reg.c:979 riscv_reg_get(): [riscv.cpu0] Reading mtopi from target
Debug: 858 60 riscv-013.c:5109 riscv013_get_register(): [riscv.cpu0] reading register mtopi
Debug: 859 60 riscv-013.c:1633 register_read_direct(): [riscv.cpu0] Reading mtopi
Debug: 860 60 riscv-013.c:745 riscv013_execute_abstract_command(): [riscv.cpu0] access register=0x320fb0 {regno=0xfb0 write=arg0 transfer=enabled postexec=disabled aarpostincrement=disabled aarsize=64bit}
Debug: 861 60 batch.c:291 riscv_batch_run_from(): [riscv.cpu0] Running batch of scans [0, 3)
Debug: 862 61 batch.c:255 log_batch(): 40b w 00320fb0 @17 -> + 00000000 @00; 3i
Debug: 863 61 batch.c:199 log_dmi_decoded(): write: command=0x320fb0 {control=0x320fb0}
Debug: 864 61 batch.c:255 log_batch(): 40b r 00000000 @16 -> + 00320fb0 @17; 0i
Debug: 865 61 batch.c:255 log_batch(): 40b - 00000000 @00 -> + 02001302 @16; 0i
Debug: 866 61 batch.c:199 log_dmi_decoded(): read: abstractcs=0x2001302 {datacount=2 busy=busy progbufsize=2 cmderr=exception}
Debug: 867 61 riscv-013.c:680 abstract_cmd_batch_check_and_clear_cmderr(): [riscv.cpu0] abstractcs=0x2001302 {datacount=2 relaxedpriv=full_checks busy=busy progbufsize=2 cmderr=exception}
Debug: 868 61 batch.c:291 riscv_batch_run_from(): [riscv.cpu0] Running batch of scans [0, 2)
Debug: 869 61 batch.c:255 log_batch(): 40b r 00000000 @16 -> + 00000000 @00; 0i
Debug: 870 61 batch.c:255 log_batch(): 40b - 00000000 @00 -> + 02000302 @16; 0i
Debug: 871 61 batch.c:199 log_dmi_decoded(): read: abstractcs=0x2000302 {datacount=2 progbufsize=2 cmderr=exception}
Debug: 872 61 batch.h:86 riscv_scan_set_delay(): Abstract Command delay is set to 4.
Debug: 873 61 riscv-013.c:702 abstract_cmd_batch_check_and_clear_cmderr(): [riscv.cpu0] Abstract Command execution failed (abstractcs.cmderr = 3).
Debug: 874 61 batch.c:291 riscv_batch_run_from(): [riscv.cpu0] Running batch of scans [0, 2)
Debug: 875 61 batch.c:255 log_batch(): 40b w 00000700 @16 -> + 00000000 @00; 0i
Debug: 876 61 batch.c:199 log_dmi_decoded(): write: abstractcs=0x700 {cmderr=other}
Debug: 877 61 batch.c:255 log_batch(): 40b - 00000000 @00 -> + 00000700 @16; 0i
Debug: 878 61 riscv-013_reg.c:375 riscv013_reg_save(): [riscv.cpu0] Saving fp
Debug: 879 61 riscv_reg.c:974 riscv_reg_get(): [riscv.cpu0] Read fp: 0x7 (cached)
Debug: 880 61 program.c:33 riscv_program_write(): [riscv.cpu0] progbuf[00] = csrr    s0, mtopi
Debug: 881 61 batch.c:291 riscv_batch_run_from(): [riscv.cpu0] Running batch of scans [0, 2)
Debug: 882 62 batch.c:255 log_batch(): 40b w fb002473 @20 -> + 00000000 @00; 0i
Debug: 883 62 batch.c:199 log_dmi_decoded(): write: 
Debug: 884 62 batch.c:255 log_batch(): 40b - 00000000 @00 -> + fb002473 @20; 0i
Debug: 885 62 program.c:33 riscv_program_write(): [riscv.cpu0] progbuf[01] = ebreak
Debug: 886 62 riscv-013.c:5387 riscv013_write_progbuf(): [riscv.cpu0] Cache hit for 0x100073 @1
Debug: 887 62 riscv-013.c:745 riscv013_execute_abstract_command(): [riscv.cpu0] access register=0x241000 {regno=0x1000 write=arg0 transfer=disabled postexec=enabled aarpostincrement=disabled aarsize=32bit}
Debug: 888 62 batch.c:291 riscv_batch_run_from(): [riscv.cpu0] Running batch of scans [0, 3)
Debug: 889 63 batch.c:255 log_batch(): 40b w 00241000 @17 -> + 00000000 @00; 4i
Debug: 890 63 batch.c:199 log_dmi_decoded(): write: command=0x241000 {control=0x241000}
Debug: 891 63 batch.c:255 log_batch(): 40b r 00000000 @16 -> + 00241000 @17; 0i
Debug: 892 63 batch.c:255 log_batch(): 40b - 00000000 @00 -> + 02000302 @16; 0i
Debug: 893 63 batch.c:199 log_dmi_decoded(): read: abstractcs=0x2000302 {datacount=2 progbufsize=2 cmderr=exception}
Debug: 894 63 riscv-013.c:680 abstract_cmd_batch_check_and_clear_cmderr(): [riscv.cpu0] abstractcs=0x2000302 {datacount=2 relaxedpriv=full_checks busy=ready progbufsize=2 cmderr=exception}
Debug: 895 63 riscv-013.c:702 abstract_cmd_batch_check_and_clear_cmderr(): [riscv.cpu0] Abstract Command execution failed (abstractcs.cmderr = 3).
Debug: 896 63 batch.c:291 riscv_batch_run_from(): [riscv.cpu0] Running batch of scans [0, 2)
Debug: 897 63 batch.c:255 log_batch(): 40b w 00000700 @16 -> + 00000000 @00; 0i
Debug: 898 63 batch.c:199 log_dmi_decoded(): write: abstractcs=0x700 {cmderr=other}
Debug: 899 63 batch.c:255 log_batch(): 40b - 00000000 @00 -> + 00000700 @16; 0i
Debug: 900 63 program.c:65 riscv_program_exec(): [riscv.cpu0] Unable to execute program 0x7ffe21e46320
Debug: 901 65 riscv_reg.c:729 riscv_reg_impl_expose_csrs(): [riscv.cpu0] Exposing additional CSR 2288 (name=csr2288)
Debug: 902 65 riscv-013.c:1683 set_dcsr_ebreak(): [riscv.cpu0] Set dcsr.ebreak*
Debug: 903 65 riscv_reg.c:979 riscv_reg_get(): [riscv.cpu0] Reading dcsr from target
Debug: 904 65 riscv-013.c:5109 riscv013_get_register(): [riscv.cpu0] reading register dcsr
Debug: 905 65 riscv-013.c:1633 register_read_direct(): [riscv.cpu0] Reading dcsr
Debug: 906 65 riscv-013.c:745 riscv013_execute_abstract_command(): [riscv.cpu0] access register=0x2207b0 {regno=0x7b0 write=arg0 transfer=enabled postexec=disabled aarpostincrement=disabled aarsize=32bit}
Debug: 907 65 batch.c:291 riscv_batch_run_from(): [riscv.cpu0] Running batch of scans [0, 3)
Debug: 908 66 batch.c:255 log_batch(): 40b w 002207b0 @17 -> + 00000000 @00; 4i
Debug: 909 66 batch.c:199 log_dmi_decoded(): write: command=0x2207b0 {control=0x2207b0}
Debug: 910 66 batch.c:255 log_batch(): 40b r 00000000 @16 -> + 002207b0 @17; 0i
Debug: 911 66 batch.c:255 log_batch(): 40b - 00000000 @00 -> + 02000002 @16; 0i
Debug: 912 66 batch.c:199 log_dmi_decoded(): read: abstractcs=0x2000002 {datacount=2 progbufsize=2}
Debug: 913 66 riscv-013.c:680 abstract_cmd_batch_check_and_clear_cmderr(): [riscv.cpu0] abstractcs=0x2000002 {datacount=2 relaxedpriv=full_checks busy=ready progbufsize=2 cmderr=none}
Debug: 914 66 batch.c:291 riscv_batch_run_from(): [riscv.cpu0] Running batch of scans [0, 2)
Debug: 915 66 batch.c:255 log_batch(): 40b r 00000000 @04 -> + 00000000 @00; 0i
Debug: 916 66 batch.c:255 log_batch(): 40b - 00000000 @00 -> + 400000c3 @04; 0i
Debug: 917 66 batch.c:199 log_dmi_decoded(): read: 
Debug: 918 66 riscv-013.c:1652 register_read_direct(): [riscv.cpu0] dcsr = 0x400000c3
Debug: 919 66 riscv_reg.c:988 riscv_reg_get(): [riscv.cpu0] Read dcsr: 0x400000c3
Debug: 920 66 riscv_reg.c:856 riscv_set_or_write_register(): [riscv.cpu0] Writing to target: dcsr <- 0x4003b0c3 (cacheable=false, valid=true, dirty=false)
Debug: 921 66 riscv-013.c:5125 riscv013_set_register(): [riscv.cpu0] writing 0x4003b0c3 to register dcsr
Debug: 922 66 riscv-013.c:1604 register_write_direct(): [riscv.cpu0] Writing 0x4003b0c3 to dcsr
Debug: 923 66 riscv-013.c:976 register_write_abstract(): [riscv.cpu0] access register=0x2307b0 {regno=0x7b0 write=register transfer=enabled postexec=disabled aarpostincrement=disabled aarsize=32bit}
Debug: 924 66 batch.c:291 riscv_batch_run_from(): [riscv.cpu0] Running batch of scans [0, 4)
Debug: 925 67 batch.c:255 log_batch(): 40b w 4003b0c3 @04 -> + 00000000 @00; 0i
Debug: 926 67 batch.c:199 log_dmi_decoded(): write: 
Debug: 927 67 batch.c:255 log_batch(): 40b w 002307b0 @17 -> + 4003b0c3 @04; 4i
Debug: 928 67 batch.c:199 log_dmi_decoded(): write: command=0x2307b0 {control=0x2307b0}
Debug: 929 67 batch.c:255 log_batch(): 40b r 00000000 @16 -> + 002307b0 @17; 0i
Debug: 930 67 batch.c:255 log_batch(): 40b - 00000000 @00 -> + 02000002 @16; 0i
Debug: 931 67 batch.c:199 log_dmi_decoded(): read: abstractcs=0x2000002 {datacount=2 progbufsize=2}
Debug: 932 67 riscv-013.c:680 abstract_cmd_batch_check_and_clear_cmderr(): [riscv.cpu0] abstractcs=0x2000002 {datacount=2 relaxedpriv=full_checks busy=ready progbufsize=2 cmderr=none}
Debug: 933 67 riscv-013.c:1623 register_write_direct(): [riscv.cpu0] dcsr <- 0x4003b0c3
Debug: 934 67 riscv_reg.c:872 riscv_set_or_write_register(): [riscv.cpu0] Wrote 0x4003b0c3 to dcsr (cacheable=false, valid=false, dirty=false)
Debug: 935 67 riscv-013.c:5480 riscv013_step_or_resume_current_hart(): [riscv.cpu0] resuming (operation=resume)
Debug: 936 67 riscv_reg.c:781 riscv_reg_flush_all(): [riscv.cpu0] Flushing register cache
Debug: 937 67 riscv_reg.c:792 riscv_reg_flush_all(): [riscv.cpu0] fp is dirty; write back 0x7
Debug: 938 67 riscv_reg.c:856 riscv_set_or_write_register(): [riscv.cpu0] Writing to target: fp <- 0x7 (cacheable=true, valid=true, dirty=true)
Debug: 939 67 riscv-013.c:5125 riscv013_set_register(): [riscv.cpu0] writing 0x7 to register fp
Debug: 940 67 riscv-013.c:1604 register_write_direct(): [riscv.cpu0] Writing 0x7 to fp
Debug: 941 67 riscv-013.c:976 register_write_abstract(): [riscv.cpu0] access register=0x331008 {regno=0x1008 write=register transfer=enabled postexec=disabled aarpostincrement=disabled aarsize=64bit}
Debug: 942 67 batch.c:291 riscv_batch_run_from(): [riscv.cpu0] Running batch of scans [0, 5)
Debug: 943 68 batch.c:255 log_batch(): 40b w 00000007 @04 -> + 00000000 @00; 0i
Debug: 944 68 batch.c:199 log_dmi_decoded(): write: 
Debug: 945 68 batch.c:255 log_batch(): 40b w 00000000 @05 -> + 00000007 @04; 0i
Debug: 946 68 batch.c:199 log_dmi_decoded(): write: 
Debug: 947 68 batch.c:255 log_batch(): 40b w 00331008 @17 -> + 00000000 @05; 4i
Debug: 948 68 batch.c:199 log_dmi_decoded(): write: command=0x331008 {control=0x331008}
Debug: 949 68 batch.c:255 log_batch(): 40b r 00000000 @16 -> + 00331008 @17; 0i
Debug: 950 68 batch.c:255 log_batch(): 40b - 00000000 @00 -> + 02000002 @16; 0i
Debug: 951 68 batch.c:199 log_dmi_decoded(): read: abstractcs=0x2000002 {datacount=2 progbufsize=2}
Debug: 952 68 riscv-013.c:680 abstract_cmd_batch_check_and_clear_cmderr(): [riscv.cpu0] abstractcs=0x2000002 {datacount=2 relaxedpriv=full_checks busy=ready progbufsize=2 cmderr=none}
Debug: 953 68 riscv-013.c:1623 register_write_direct(): [riscv.cpu0] fp <- 0x7
Debug: 954 68 riscv_reg.c:872 riscv_set_or_write_register(): [riscv.cpu0] Wrote 0x7 to fp (cacheable=true, valid=true, dirty=false)
Debug: 955 68 riscv_reg.c:798 riscv_reg_flush_all(): [riscv.cpu0] Flush of register cache completed
Debug: 956 68 riscv_reg.c:904 riscv_reg_cache_invalidate_all(): [riscv.cpu0] Invalidating register cache.
Debug: 957 68 batch.c:291 riscv_batch_run_from(): [riscv.cpu0] Running batch of scans [0, 2)
Debug: 958 68 batch.c:255 log_batch(): 40b w 40000001 @10 -> + 00000000 @00; 0i
Debug: 959 68 batch.c:199 log_dmi_decoded(): write: dmcontrol=0x40000001 {dmactive=active resumereq=1}
Debug: 960 68 batch.c:255 log_batch(): 40b - 00000000 @00 -> + 40000001 @10; 0i
Debug: 961 69 batch.c:291 riscv_batch_run_from(): [riscv.cpu0] Running batch of scans [0, 2)
Debug: 962 69 batch.c:255 log_batch(): 40b r 00000000 @11 -> + 00000000 @00; 0i
Debug: 963 69 batch.c:255 log_batch(): 40b - 00000000 @00 -> + 00430c82 @11; 0i
Debug: 964 69 batch.c:199 log_dmi_decoded(): read: dmstatus=0x430c82 {version=0_13 anyrunning=1 allrunning=1 anyresumeack=1 allresumeack=1 impebreak=1 authenticated=true}
Debug: 965 69 batch.c:291 riscv_batch_run_from(): [riscv.cpu0] Running batch of scans [0, 2)
Debug: 966 69 batch.c:255 log_batch(): 40b w 00000001 @10 -> + 00000000 @00; 0i
Debug: 967 69 batch.c:199 log_dmi_decoded(): write: dmcontrol=1 {dmactive=active}
Debug: 968 69 batch.c:255 log_batch(): 40b - 00000000 @00 -> + 00000001 @10; 0i
Info : 969 69 riscv-013.c:2165 examine(): [riscv.cpu0] Examined RISC-V core
Info : 970 69 riscv-013.c:2166 examine(): [riscv.cpu0]  XLEN=64, misa=0x8000000000141129
Debug: 971 69 target.c:1826 target_call_event_callbacks(): target event 21 (examine-end) for core riscv.cpu0
Info : 972 69 target.c:704 target_examine_one(): [riscv.cpu0] Examination succeed
Debug: 973 69 command.c:82 script_debug(): command - target names
Debug: 974 69 command.c:82 script_debug(): command - targets riscv.cpu0
Debug: 975 69 command.c:82 script_debug(): command - halt
Debug: 976 69 target.c:3269 handle_halt_command(): -
Debug: 977 69 riscv.c:2727 riscv_halt(): [riscv.cpu0] halting all harts
Debug: 978 69 riscv.c:2648 halt_prep(): [riscv.cpu0] prep hart, debug_reason=5
Debug: 979 69 batch.c:291 riscv_batch_run_from(): [riscv.cpu0] Running batch of scans [0, 2)
Debug: 980 70 batch.c:255 log_batch(): 40b r 00000000 @11 -> + 00000000 @00; 0i
Debug: 981 70 batch.c:255 log_batch(): 40b - 00000000 @00 -> + 00430c82 @11; 0i
Debug: 982 70 batch.c:199 log_dmi_decoded(): read: dmstatus=0x430c82 {version=0_13 anyrunning=1 allrunning=1 anyresumeack=1 allresumeack=1 impebreak=1 authenticated=true}
Debug: 983 70 riscv_reg.c:904 riscv_reg_cache_invalidate_all(): [riscv.cpu0] Invalidating register cache.
Debug: 984 70 riscv-013.c:5185 select_prepped_harts(): [riscv.cpu0] index=1, prepped=0
Debug: 985 70 riscv-013.c:5185 select_prepped_harts(): [riscv.cpu0] index=0, prepped=1
Debug: 986 70 riscv-013.c:5239 riscv013_halt_go(): [riscv.cpu0] halting hart
Debug: 987 70 batch.c:291 riscv_batch_run_from(): [riscv.cpu0] Running batch of scans [0, 2)
Debug: 988 70 batch.c:255 log_batch(): 40b w 80000001 @10 -> + 00000000 @00; 0i
Debug: 989 70 batch.c:199 log_dmi_decoded(): write: dmcontrol=0x80000001 {dmactive=active haltreq=1}
Debug: 990 70 batch.c:255 log_batch(): 40b - 00000000 @00 -> + 80000001 @10; 0i
Debug: 991 70 batch.c:291 riscv_batch_run_from(): [riscv.cpu0] Running batch of scans [0, 2)
Debug: 992 71 batch.c:255 log_batch(): 40b r 00000000 @11 -> + 00000000 @00; 0i
Debug: 993 71 batch.c:255 log_batch(): 40b - 00000000 @00 -> + 00430382 @11; 0i
Debug: 994 71 batch.c:199 log_dmi_decoded(): read: dmstatus=0x430382 {version=0_13 anyresumeack=1 allresumeack=1 impebreak=1 authenticated=true anyhalted=1 allhalted=1}
Debug: 995 71 batch.c:291 riscv_batch_run_from(): [riscv.cpu0] Running batch of scans [0, 2)
Debug: 996 71 batch.c:255 log_batch(): 40b w 00000001 @10 -> + 00000000 @00; 0i
Debug: 997 71 batch.c:199 log_dmi_decoded(): write: dmcontrol=1 {dmactive=active}
Debug: 998 71 batch.c:255 log_batch(): 40b - 00000000 @00 -> + 00000001 @10; 0i
Debug: 999 71 target.c:1826 target_call_event_callbacks(): target event 0 (gdb-halt) for core riscv.cpu0
Debug: 1000 71 target.c:1826 target_call_event_callbacks(): target event 1 (halted) for core riscv.cpu0
User : 1001 71 riscv.c:3572 riscv_arch_state(): riscv.cpu0 halted due to debug-request.
Debug: 1002 71 riscv.c:4022 riscv_openocd_poll(): [riscv.cpu0] Polling all harts.
Debug: 1003 71 riscv.c:3845 riscv_poll_hart(): [riscv.cpu0] polling, target->state=2
Debug: 1004 71 batch.c:291 riscv_batch_run_from(): [riscv.cpu0] Running batch of scans [0, 2)
Debug: 1005 71 batch.c:255 log_batch(): 40b r 00000000 @11 -> + 00000000 @00; 0i
Debug: 1006 71 batch.c:255 log_batch(): 40b - 00000000 @00 -> + 00430382 @11; 0i
Debug: 1007 71 batch.c:199 log_dmi_decoded(): read: dmstatus=0x430382 {version=0_13 anyresumeack=1 allresumeack=1 impebreak=1 authenticated=true anyhalted=1 allhalted=1}
Debug: 1008 71 riscv.c:4081 riscv_openocd_poll(): [riscv.cpu0] should_remain_halted=0, should_resume=0
Debug: 1009 71 command.c:82 script_debug(): command - arm semihosting enable
Debug: 1010 71 riscv_semihosting.c:224 riscv_semihosting_setup(): [riscv.cpu0] enable=1
Debug: 1011 71 command.c:82 script_debug(): command - targets riscv.cpu1
Debug: 1012 71 command.c:82 script_debug(): command - halt
Debug: 1013 71 target.c:3269 handle_halt_command(): -
Debug: 1014 71 riscv.c:2727 riscv_halt(): [riscv.cpu1] halting all harts
Debug: 1015 71 riscv.c:2648 halt_prep(): [riscv.cpu1] prep hart, debug_reason=5
Debug: 1016 71 batch.c:291 riscv_batch_run_from(): [riscv.cpu1] Running batch of scans [0, 2)
Debug: 1017 72 batch.c:255 log_batch(): 40b w 00010001 @10 -> + 00000000 @00; 0i
Debug: 1018 72 batch.c:199 log_dmi_decoded(): write: dmcontrol=0x10001 {dmactive=active hartsello=1}
Debug: 1019 72 batch.c:255 log_batch(): 40b - 00000000 @00 -> + 00010001 @10; 0i
Debug: 1020 72 batch.c:291 riscv_batch_run_from(): [riscv.cpu1] Running batch of scans [0, 2)
Debug: 1021 72 batch.c:255 log_batch(): 40b r 00000000 @11 -> + 00000000 @00; 0i
Debug: 1022 72 batch.c:255 log_batch(): 40b - 00000000 @00 -> + 00430c82 @11; 0i
Debug: 1023 72 batch.c:199 log_dmi_decoded(): read: dmstatus=0x430c82 {version=0_13 anyrunning=1 allrunning=1 anyresumeack=1 allresumeack=1 impebreak=1 authenticated=true}
Debug: 1024 72 riscv_reg.c:904 riscv_reg_cache_invalidate_all(): [riscv.cpu1] Invalidating register cache.
Debug: 1025 72 riscv-013.c:5185 select_prepped_harts(): [riscv.cpu1] index=1, prepped=1
Debug: 1026 72 riscv-013.c:5185 select_prepped_harts(): [riscv.cpu1] index=0, prepped=0
Debug: 1027 72 riscv-013.c:5239 riscv013_halt_go(): [riscv.cpu1] halting hart
Debug: 1028 72 batch.c:291 riscv_batch_run_from(): [riscv.cpu1] Running batch of scans [0, 2)
Debug: 1029 74 batch.c:255 log_batch(): 40b w 80010001 @10 -> + 00000000 @00; 0i
Debug: 1030 74 batch.c:199 log_dmi_decoded(): write: dmcontrol=0x80010001 {dmactive=active hartsello=1 haltreq=1}
Debug: 1031 74 batch.c:255 log_batch(): 40b - 00000000 @00 -> + 80010001 @10; 0i
Debug: 1032 74 batch.c:291 riscv_batch_run_from(): [riscv.cpu1] Running batch of scans [0, 2)
Debug: 1033 75 batch.c:255 log_batch(): 40b r 00000000 @11 -> + 00000000 @00; 0i
Debug: 1034 75 batch.c:255 log_batch(): 40b - 00000000 @00 -> + 00430382 @11; 0i
Debug: 1035 75 batch.c:199 log_dmi_decoded(): read: dmstatus=0x430382 {version=0_13 anyresumeack=1 allresumeack=1 impebreak=1 authenticated=true anyhalted=1 allhalted=1}
Debug: 1036 75 batch.c:291 riscv_batch_run_from(): [riscv.cpu1] Running batch of scans [0, 2)
Debug: 1037 75 batch.c:255 log_batch(): 40b w 00010001 @10 -> + 00000000 @00; 0i
Debug: 1038 75 batch.c:199 log_dmi_decoded(): write: dmcontrol=0x10001 {dmactive=active hartsello=1}
Debug: 1039 75 batch.c:255 log_batch(): 40b - 00000000 @00 -> + 00010001 @10; 0i
Debug: 1040 75 target.c:1826 target_call_event_callbacks(): target event 0 (gdb-halt) for core riscv.cpu1
Debug: 1041 75 target.c:1826 target_call_event_callbacks(): target event 1 (halted) for core riscv.cpu1
User : 1042 75 riscv.c:3572 riscv_arch_state(): riscv.cpu1 halted due to debug-request.
Debug: 1043 75 riscv.c:4022 riscv_openocd_poll(): [riscv.cpu1] Polling all harts.
Debug: 1044 75 riscv.c:3845 riscv_poll_hart(): [riscv.cpu1] polling, target->state=2
Debug: 1045 75 batch.c:291 riscv_batch_run_from(): [riscv.cpu1] Running batch of scans [0, 2)
Debug: 1046 75 batch.c:255 log_batch(): 40b r 00000000 @11 -> + 00000000 @00; 0i
Debug: 1047 75 batch.c:255 log_batch(): 40b - 00000000 @00 -> + 00430382 @11; 0i
Debug: 1048 75 batch.c:199 log_dmi_decoded(): read: dmstatus=0x430382 {version=0_13 anyresumeack=1 allresumeack=1 impebreak=1 authenticated=true anyhalted=1 allhalted=1}
Debug: 1049 75 riscv.c:4081 riscv_openocd_poll(): [riscv.cpu1] should_remain_halted=0, should_resume=0
Debug: 1050 75 command.c:82 script_debug(): command - arm semihosting enable
Debug: 1051 75 riscv_semihosting.c:224 riscv_semihosting_setup(): [riscv.cpu1] enable=1
Info : 1052 76 server.c:313 add_service(): Listening on port 34629 for tcl connections
Info : 1053 76 telnet_server.c:948 telnet_init(): telnet server disabled
Debug: 1054 76 command.c:82 script_debug(): command - init
Debug: 1055 106 riscv.c:4022 riscv_openocd_poll(): [riscv.cpu0] Polling all harts.
Debug: 1056 108 riscv.c:3845 riscv_poll_hart(): [riscv.cpu0] polling, target->state=2
Debug: 1057 108 batch.c:291 riscv_batch_run_from(): [riscv.cpu0] Running batch of scans [0, 2)
Debug: 1058 108 batch.c:255 log_batch(): 40b w 00000001 @10 -> + 00000000 @00; 0i
Debug: 1059 108 batch.c:199 log_dmi_decoded(): write: dmcontrol=1 {dmactive=active}
Debug: 1060 108 batch.c:255 log_batch(): 40b - 00000000 @00 -> + 00000001 @10; 0i
Debug: 1061 108 batch.c:291 riscv_batch_run_from(): [riscv.cpu0] Running batch of scans [0, 2)
Debug: 1062 109 batch.c:255 log_batch(): 40b r 00000000 @11 -> + 00000000 @00; 0i
Debug: 1063 109 batch.c:255 log_batch(): 40b - 00000000 @00 -> + 00430382 @11; 0i
Debug: 1064 109 batch.c:199 log_dmi_decoded(): read: dmstatus=0x430382 {version=0_13 anyresumeack=1 allresumeack=1 impebreak=1 authenticated=true anyhalted=1 allhalted=1}
Debug: 1065 109 riscv.c:4081 riscv_openocd_poll(): [riscv.cpu0] should_remain_halted=0, should_resume=0
Debug: 1066 109 riscv.c:4022 riscv_openocd_poll(): [riscv.cpu1] Polling all harts.
Debug: 1067 109 riscv.c:3845 riscv_poll_hart(): [riscv.cpu1] polling, target->state=2
Debug: 1068 109 batch.c:291 riscv_batch_run_from(): [riscv.cpu1] Running batch of scans [0, 2)
Debug: 1069 109 batch.c:255 log_batch(): 40b w 00010001 @10 -> + 00000000 @00; 0i
Debug: 1070 109 batch.c:199 log_dmi_decoded(): write: dmcontrol=0x10001 {dmactive=active hartsello=1}
Debug: 1071 109 batch.c:255 log_batch(): 40b - 00000000 @00 -> + 00010001 @10; 0i
Debug: 1072 109 batch.c:291 riscv_batch_run_from(): [riscv.cpu1] Running batch of scans [0, 2)
Debug: 1073 109 batch.c:255 log_batch(): 40b r 00000000 @11 -> + 00000000 @00; 0i
Debug: 1074 109 batch.c:255 log_batch(): 40b - 00000000 @00 -> + 00430382 @11; 0i
Debug: 1075 111 batch.c:199 log_dmi_decoded(): read: dmstatus=0x430382 {version=0_13 anyresumeack=1 allresumeack=1 impebreak=1 authenticated=true anyhalted=1 allhalted=1}
Debug: 1076 111 riscv.c:4081 riscv_openocd_poll(): [riscv.cpu1] should_remain_halted=0, should_resume=0
Info : 1077 119 server.c:91 add_connection(): accepting 'tcl' connection on tcp/0
Debug: 1078 168 command.c:82 script_debug(): command - capture  echo "Hello TCL-RPC!" 
Debug: 1079 168 command.c:82 script_debug(): command - echo Hello TCL-RPC!
User : 1080 168 command.c:618 handle_echo(): Hello TCL-RPC!
User : 1081 168 options.c:52 configuration_output_handler(): Hello TCL-RPC!
User : 1082 168 options.c:52 configuration_output_handler(): 
Debug: 1083 206 riscv.c:4022 riscv_openocd_poll(): [riscv.cpu0] Polling all harts.
Debug: 1084 206 riscv.c:3845 riscv_poll_hart(): [riscv.cpu0] polling, target->state=2
Debug: 1085 206 batch.c:291 riscv_batch_run_from(): [riscv.cpu0] Running batch of scans [0, 2)
Debug: 1086 206 batch.c:255 log_batch(): 40b w 00000001 @10 -> + 00000000 @00; 0i
Debug: 1087 206 batch.c:199 log_dmi_decoded(): write: dmcontrol=1 {dmactive=active}
Debug: 1088 206 batch.c:255 log_batch(): 40b - 00000000 @00 -> + 00000001 @10; 0i
Debug: 1089 206 batch.c:291 riscv_batch_run_from(): [riscv.cpu0] Running batch of scans [0, 2)
Debug: 1090 207 batch.c:255 log_batch(): 40b r 00000000 @11 -> + 00000000 @00; 0i
Debug: 1091 207 batch.c:255 log_batch(): 40b - 00000000 @00 -> + 00430382 @11; 0i
Debug: 1092 208 batch.c:199 log_dmi_decoded(): read: dmstatus=0x430382 {version=0_13 anyresumeack=1 allresumeack=1 impebreak=1 authenticated=true anyhalted=1 allhalted=1}
Debug: 1093 208 riscv_reg.c:781 riscv_reg_flush_all(): [riscv.cpu0] Flushing register cache
Debug: 1094 208 riscv_reg.c:798 riscv_reg_flush_all(): [riscv.cpu0] Flush of register cache completed
Debug: 1095 208 riscv.c:4081 riscv_openocd_poll(): [riscv.cpu0] should_remain_halted=0, should_resume=0
Debug: 1096 208 riscv.c:4022 riscv_openocd_poll(): [riscv.cpu1] Polling all harts.
Debug: 1097 208 riscv.c:3845 riscv_poll_hart(): [riscv.cpu1] polling, target->state=2
Debug: 1098 208 batch.c:291 riscv_batch_run_from(): [riscv.cpu1] Running batch of scans [0, 2)
Debug: 1099 208 batch.c:255 log_batch(): 40b w 00010001 @10 -> + 00000000 @00; 0i
Debug: 1100 209 batch.c:199 log_dmi_decoded(): write: dmcontrol=0x10001 {dmactive=active hartsello=1}
Debug: 1101 209 batch.c:255 log_batch(): 40b - 00000000 @00 -> + 00010001 @10; 0i
Debug: 1102 209 batch.c:291 riscv_batch_run_from(): [riscv.cpu1] Running batch of scans [0, 2)
Debug: 1103 210 batch.c:255 log_batch(): 40b r 00000000 @11 -> + 00000000 @00; 0i
Debug: 1104 210 batch.c:255 log_batch(): 40b - 00000000 @00 -> + 00430382 @11; 0i
Debug: 1105 210 batch.c:199 log_dmi_decoded(): read: dmstatus=0x430382 {version=0_13 anyresumeack=1 allresumeack=1 impebreak=1 authenticated=true anyhalted=1 allhalted=1}
Debug: 1106 210 riscv_reg.c:781 riscv_reg_flush_all(): [riscv.cpu1] Flushing register cache
Debug: 1107 210 riscv_reg.c:798 riscv_reg_flush_all(): [riscv.cpu1] Flush of register cache completed
Debug: 1108 210 riscv.c:4081 riscv_openocd_poll(): [riscv.cpu1] should_remain_halted=0, should_resume=0
Debug: 1109 306 riscv.c:4022 riscv_openocd_poll(): [riscv.cpu0] Polling all harts.
Debug: 1110 306 riscv.c:3845 riscv_poll_hart(): [riscv.cpu0] polling, target->state=2
Debug: 1111 306 batch.c:291 riscv_batch_run_from(): [riscv.cpu0] Running batch of scans [0, 2)
Debug: 1112 307 batch.c:255 log_batch(): 40b w 00000001 @10 -> + 00000000 @00; 0i
Debug: 1113 307 batch.c:199 log_dmi_decoded(): write: dmcontrol=1 {dmactive=active}
Debug: 1114 307 batch.c:255 log_batch(): 40b - 00000000 @00 -> + 00000001 @10; 0i
Debug: 1115 307 batch.c:291 riscv_batch_run_from(): [riscv.cpu0] Running batch of scans [0, 2)
Debug: 1116 307 batch.c:255 log_batch(): 40b r 00000000 @11 -> + 00000000 @00; 0i
Debug: 1117 308 batch.c:255 log_batch(): 40b - 00000000 @00 -> + 00430382 @11; 0i
Debug: 1118 308 batch.c:199 log_dmi_decoded(): read: dmstatus=0x430382 {version=0_13 anyresumeack=1 allresumeack=1 impebreak=1 authenticated=true anyhalted=1 allhalted=1}
Debug: 1119 308 riscv_reg.c:781 riscv_reg_flush_all(): [riscv.cpu0] Flushing register cache
Debug: 1120 308 riscv_reg.c:798 riscv_reg_flush_all(): [riscv.cpu0] Flush of register cache completed
Debug: 1121 308 riscv.c:4081 riscv_openocd_poll(): [riscv.cpu0] should_remain_halted=0, should_resume=0
Debug: 1122 308 riscv.c:4022 riscv_openocd_poll(): [riscv.cpu1] Polling all harts.
Debug: 1123 308 riscv.c:3845 riscv_poll_hart(): [riscv.cpu1] polling, target->state=2
Debug: 1124 308 batch.c:291 riscv_batch_run_from(): [riscv.cpu1] Running batch of scans [0, 2)
Debug: 1125 308 batch.c:255 log_batch(): 40b w 00010001 @10 -> + 00000000 @00; 0i
Debug: 1126 309 batch.c:199 log_dmi_decoded(): write: dmcontrol=0x10001 {dmactive=active hartsello=1}
Debug: 1127 309 batch.c:255 log_batch(): 40b - 00000000 @00 -> + 00010001 @10; 0i
Debug: 1128 309 batch.c:291 riscv_batch_run_from(): [riscv.cpu1] Running batch of scans [0, 2)
Debug: 1129 310 batch.c:255 log_batch(): 40b r 00000000 @11 -> + 00000000 @00; 0i
Debug: 1130 310 batch.c:255 log_batch(): 40b - 00000000 @00 -> + 00430382 @11; 0i
Debug: 1131 310 batch.c:199 log_dmi_decoded(): read: dmstatus=0x430382 {version=0_13 anyresumeack=1 allresumeack=1 impebreak=1 authenticated=true anyhalted=1 allhalted=1}
Debug: 1132 310 riscv_reg.c:781 riscv_reg_flush_all(): [riscv.cpu1] Flushing register cache
Debug: 1133 310 riscv_reg.c:798 riscv_reg_flush_all(): [riscv.cpu1] Flush of register cache completed
Debug: 1134 310 riscv.c:4081 riscv_openocd_poll(): [riscv.cpu1] should_remain_halted=0, should_resume=0
Debug: 1135 407 riscv.c:4022 riscv_openocd_poll(): [riscv.cpu0] Polling all harts.
Debug: 1136 407 riscv.c:3845 riscv_poll_hart(): [riscv.cpu0] polling, target->state=2
Debug: 1137 407 batch.c:291 riscv_batch_run_from(): [riscv.cpu0] Running batch of scans [0, 2)
Debug: 1138 407 batch.c:255 log_batch(): 40b w 00000001 @10 -> + 00000000 @00; 0i
Debug: 1139 407 batch.c:199 log_dmi_decoded(): write: dmcontrol=1 {dmactive=active}
Debug: 1140 407 batch.c:255 log_batch(): 40b - 00000000 @00 -> + 00000001 @10; 0i
Debug: 1141 407 batch.c:291 riscv_batch_run_from(): [riscv.cpu0] Running batch of scans [0, 2)
Debug: 1142 407 batch.c:255 log_batch(): 40b r 00000000 @11 -> + 00000000 @00; 0i
Debug: 1143 407 batch.c:255 log_batch(): 40b - 00000000 @00 -> + 00430382 @11; 0i
Debug: 1144 407 batch.c:199 log_dmi_decoded(): read: dmstatus=0x430382 {version=0_13 anyresumeack=1 allresumeack=1 impebreak=1 authenticated=true anyhalted=1 allhalted=1}
Debug: 1145 407 riscv_reg.c:781 riscv_reg_flush_all(): [riscv.cpu0] Flushing register cache
Debug: 1146 407 riscv_reg.c:798 riscv_reg_flush_all(): [riscv.cpu0] Flush of register cache completed
Debug: 1147 407 riscv.c:4081 riscv_openocd_poll(): [riscv.cpu0] should_remain_halted=0, should_resume=0
Debug: 1148 407 riscv.c:4022 riscv_openocd_poll(): [riscv.cpu1] Polling all harts.
Debug: 1149 407 riscv.c:3845 riscv_poll_hart(): [riscv.cpu1] polling, target->state=2
Debug: 1150 407 batch.c:291 riscv_batch_run_from(): [riscv.cpu1] Running batch of scans [0, 2)
Debug: 1151 408 batch.c:255 log_batch(): 40b w 00010001 @10 -> + 00000000 @00; 0i
Debug: 1152 408 batch.c:199 log_dmi_decoded(): write: dmcontrol=0x10001 {dmactive=active hartsello=1}
Debug: 1153 408 batch.c:255 log_batch(): 40b - 00000000 @00 -> + 00010001 @10; 0i
Debug: 1154 408 batch.c:291 riscv_batch_run_from(): [riscv.cpu1] Running batch of scans [0, 2)
Debug: 1155 408 batch.c:255 log_batch(): 40b r 00000000 @11 -> + 00000000 @00; 0i
Debug: 1156 408 batch.c:255 log_batch(): 40b - 00000000 @00 -> + 00430382 @11; 0i
Debug: 1157 408 batch.c:199 log_dmi_decoded(): read: dmstatus=0x430382 {version=0_13 anyresumeack=1 allresumeack=1 impebreak=1 authenticated=true anyhalted=1 allhalted=1}
Debug: 1158 408 riscv_reg.c:781 riscv_reg_flush_all(): [riscv.cpu1] Flushing register cache
Debug: 1159 408 riscv_reg.c:798 riscv_reg_flush_all(): [riscv.cpu1] Flush of register cache completed
Debug: 1160 408 riscv.c:4081 riscv_openocd_poll(): [riscv.cpu1] should_remain_halted=0, should_resume=0
Debug: 1161 507 riscv.c:4022 riscv_openocd_poll(): [riscv.cpu0] Polling all harts.
Debug: 1162 507 riscv.c:3845 riscv_poll_hart(): [riscv.cpu0] polling, target->state=2
Debug: 1163 507 batch.c:291 riscv_batch_run_from(): [riscv.cpu0] Running batch of scans [0, 2)
Debug: 1164 508 batch.c:255 log_batch(): 40b w 00000001 @10 -> + 00000000 @00; 0i
Debug: 1165 508 batch.c:199 log_dmi_decoded(): write: dmcontrol=1 {dmactive=active}
Debug: 1166 508 batch.c:255 log_batch(): 40b - 00000000 @00 -> + 00000001 @10; 0i
Debug: 1167 508 batch.c:291 riscv_batch_run_from(): [riscv.cpu0] Running batch of scans [0, 2)
Debug: 1168 508 batch.c:255 log_batch(): 40b r 00000000 @11 -> + 00000000 @00; 0i
Debug: 1169 508 batch.c:255 log_batch(): 40b - 00000000 @00 -> + 00430382 @11; 0i
Debug: 1170 508 batch.c:199 log_dmi_decoded(): read: dmstatus=0x430382 {version=0_13 anyresumeack=1 allresumeack=1 impebreak=1 authenticated=true anyhalted=1 allhalted=1}
Debug: 1171 508 riscv_reg.c:781 riscv_reg_flush_all(): [riscv.cpu0] Flushing register cache
Debug: 1172 508 riscv_reg.c:798 riscv_reg_flush_all(): [riscv.cpu0] Flush of register cache completed
Debug: 1173 508 riscv.c:4081 riscv_openocd_poll(): [riscv.cpu0] should_remain_halted=0, should_resume=0
Debug: 1174 508 riscv.c:4022 riscv_openocd_poll(): [riscv.cpu1] Polling all harts.
Debug: 1175 508 riscv.c:3845 riscv_poll_hart(): [riscv.cpu1] polling, target->state=2
Debug: 1176 508 batch.c:291 riscv_batch_run_from(): [riscv.cpu1] Running batch of scans [0, 2)
Debug: 1177 508 batch.c:255 log_batch(): 40b w 00010001 @10 -> + 00000000 @00; 0i
Debug: 1178 509 batch.c:199 log_dmi_decoded(): write: dmcontrol=0x10001 {dmactive=active hartsello=1}
Debug: 1179 509 batch.c:255 log_batch(): 40b - 00000000 @00 -> + 00010001 @10; 0i
Debug: 1180 509 batch.c:291 riscv_batch_run_from(): [riscv.cpu1] Running batch of scans [0, 2)
Debug: 1181 509 batch.c:255 log_batch(): 40b r 00000000 @11 -> + 00000000 @00; 0i
Debug: 1182 509 batch.c:255 log_batch(): 40b - 00000000 @00 -> + 00430382 @11; 0i
Debug: 1183 509 batch.c:199 log_dmi_decoded(): read: dmstatus=0x430382 {version=0_13 anyresumeack=1 allresumeack=1 impebreak=1 authenticated=true anyhalted=1 allhalted=1}
Debug: 1184 509 riscv_reg.c:781 riscv_reg_flush_all(): [riscv.cpu1] Flushing register cache
Debug: 1185 509 riscv_reg.c:798 riscv_reg_flush_all(): [riscv.cpu1] Flush of register cache completed
Debug: 1186 509 riscv.c:4081 riscv_openocd_poll(): [riscv.cpu1] should_remain_halted=0, should_resume=0
Debug: 1187 608 riscv.c:4022 riscv_openocd_poll(): [riscv.cpu0] Polling all harts.
Debug: 1188 608 riscv.c:3845 riscv_poll_hart(): [riscv.cpu0] polling, target->state=2
Debug: 1189 608 batch.c:291 riscv_batch_run_from(): [riscv.cpu0] Running batch of scans [0, 2)
Debug: 1190 608 batch.c:255 log_batch(): 40b w 00000001 @10 -> + 00000000 @00; 0i
Debug: 1191 608 batch.c:199 log_dmi_decoded(): write: dmcontrol=1 {dmactive=active}
Debug: 1192 608 batch.c:255 log_batch(): 40b - 00000000 @00 -> + 00000001 @10; 0i
Debug: 1193 608 batch.c:291 riscv_batch_run_from(): [riscv.cpu0] Running batch of scans [0, 2)
Debug: 1194 609 batch.c:255 log_batch(): 40b r 00000000 @11 -> + 00000000 @00; 0i
Debug: 1195 609 batch.c:255 log_batch(): 40b - 00000000 @00 -> + 00430382 @11; 0i
Debug: 1196 609 batch.c:199 log_dmi_decoded(): read: dmstatus=0x430382 {version=0_13 anyresumeack=1 allresumeack=1 impebreak=1 authenticated=true anyhalted=1 allhalted=1}
Debug: 1197 609 riscv_reg.c:781 riscv_reg_flush_all(): [riscv.cpu0] Flushing register cache
Debug: 1198 609 riscv_reg.c:798 riscv_reg_flush_all(): [riscv.cpu0] Flush of register cache completed
Debug: 1199 609 riscv.c:4081 riscv_openocd_poll(): [riscv.cpu0] should_remain_halted=0, should_resume=0
Debug: 1200 609 riscv.c:4022 riscv_openocd_poll(): [riscv.cpu1] Polling all harts.
Debug: 1201 609 riscv.c:3845 riscv_poll_hart(): [riscv.cpu1] polling, target->state=2
Debug: 1202 609 batch.c:291 riscv_batch_run_from(): [riscv.cpu1] Running batch of scans [0, 2)
Debug: 1203 609 batch.c:255 log_batch(): 40b w 00010001 @10 -> + 00000000 @00; 0i
Debug: 1204 609 batch.c:199 log_dmi_decoded(): write: dmcontrol=0x10001 {dmactive=active hartsello=1}
Debug: 1205 609 batch.c:255 log_batch(): 40b - 00000000 @00 -> + 00010001 @10; 0i
Debug: 1206 609 batch.c:291 riscv_batch_run_from(): [riscv.cpu1] Running batch of scans [0, 2)
Debug: 1207 609 batch.c:255 log_batch(): 40b r 00000000 @11 -> + 00000000 @00; 0i
Debug: 1208 609 batch.c:255 log_batch(): 40b - 00000000 @00 -> + 00430382 @11; 0i
Debug: 1209 609 batch.c:199 log_dmi_decoded(): read: dmstatus=0x430382 {version=0_13 anyresumeack=1 allresumeack=1 impebreak=1 authenticated=true anyhalted=1 allhalted=1}
Debug: 1210 609 riscv_reg.c:781 riscv_reg_flush_all(): [riscv.cpu1] Flushing register cache
Debug: 1211 609 riscv_reg.c:798 riscv_reg_flush_all(): [riscv.cpu1] Flush of register cache completed
Debug: 1212 609 riscv.c:4081 riscv_openocd_poll(): [riscv.cpu1] should_remain_halted=0, should_resume=0
Debug: 1213 709 riscv.c:4022 riscv_openocd_poll(): [riscv.cpu0] Polling all harts.
Debug: 1214 709 riscv.c:3845 riscv_poll_hart(): [riscv.cpu0] polling, target->state=2
Debug: 1215 709 batch.c:291 riscv_batch_run_from(): [riscv.cpu0] Running batch of scans [0, 2)
Debug: 1216 709 batch.c:255 log_batch(): 40b w 00000001 @10 -> + 00000000 @00; 0i
Debug: 1217 709 batch.c:199 log_dmi_decoded(): write: dmcontrol=1 {dmactive=active}
Debug: 1218 709 batch.c:255 log_batch(): 40b - 00000000 @00 -> + 00000001 @10; 0i
Debug: 1219 709 batch.c:291 riscv_batch_run_from(): [riscv.cpu0] Running batch of scans [0, 2)
Debug: 1220 709 batch.c:255 log_batch(): 40b r 00000000 @11 -> + 00000000 @00; 0i
Debug: 1221 709 batch.c:255 log_batch(): 40b - 00000000 @00 -> + 00430382 @11; 0i
Debug: 1222 709 batch.c:199 log_dmi_decoded(): read: dmstatus=0x430382 {version=0_13 anyresumeack=1 allresumeack=1 impebreak=1 authenticated=true anyhalted=1 allhalted=1}
Debug: 1223 709 riscv_reg.c:781 riscv_reg_flush_all(): [riscv.cpu0] Flushing register cache
Debug: 1224 709 riscv_reg.c:798 riscv_reg_flush_all(): [riscv.cpu0] Flush of register cache completed
Debug: 1225 709 riscv.c:4081 riscv_openocd_poll(): [riscv.cpu0] should_remain_halted=0, should_resume=0
Debug: 1226 709 riscv.c:4022 riscv_openocd_poll(): [riscv.cpu1] Polling all harts.
Debug: 1227 710 riscv.c:3845 riscv_poll_hart(): [riscv.cpu1] polling, target->state=2
Debug: 1228 710 batch.c:291 riscv_batch_run_from(): [riscv.cpu1] Running batch of scans [0, 2)
Debug: 1229 710 batch.c:255 log_batch(): 40b w 00010001 @10 -> + 00000000 @00; 0i
Debug: 1230 710 batch.c:199 log_dmi_decoded(): write: dmcontrol=0x10001 {dmactive=active hartsello=1}
Debug: 1231 710 batch.c:255 log_batch(): 40b - 00000000 @00 -> + 00010001 @10; 0i
Debug: 1232 710 batch.c:291 riscv_batch_run_from(): [riscv.cpu1] Running batch of scans [0, 2)
Debug: 1233 710 batch.c:255 log_batch(): 40b r 00000000 @11 -> + 00000000 @00; 0i
Debug: 1234 710 batch.c:255 log_batch(): 40b - 00000000 @00 -> + 00430382 @11; 0i
Debug: 1235 710 batch.c:199 log_dmi_decoded(): read: dmstatus=0x430382 {version=0_13 anyresumeack=1 allresumeack=1 impebreak=1 authenticated=true anyhalted=1 allhalted=1}
Debug: 1236 710 riscv_reg.c:781 riscv_reg_flush_all(): [riscv.cpu1] Flushing register cache
Debug: 1237 710 riscv_reg.c:798 riscv_reg_flush_all(): [riscv.cpu1] Flush of register cache completed
Debug: 1238 710 riscv.c:4081 riscv_openocd_poll(): [riscv.cpu1] should_remain_halted=0, should_resume=0
Debug: 1239 810 riscv.c:4022 riscv_openocd_poll(): [riscv.cpu0] Polling all harts.
Debug: 1240 810 riscv.c:3845 riscv_poll_hart(): [riscv.cpu0] polling, target->state=2
Debug: 1241 810 batch.c:291 riscv_batch_run_from(): [riscv.cpu0] Running batch of scans [0, 2)
Debug: 1242 810 batch.c:255 log_batch(): 40b w 00000001 @10 -> + 00000000 @00; 0i
Debug: 1243 810 batch.c:199 log_dmi_decoded(): write: dmcontrol=1 {dmactive=active}
Debug: 1244 810 batch.c:255 log_batch(): 40b - 00000000 @00 -> + 00000001 @10; 0i
Debug: 1245 810 batch.c:291 riscv_batch_run_from(): [riscv.cpu0] Running batch of scans [0, 2)
Debug: 1246 810 batch.c:255 log_batch(): 40b r 00000000 @11 -> + 00000000 @00; 0i
Debug: 1247 810 batch.c:255 log_batch(): 40b - 00000000 @00 -> + 00430382 @11; 0i
Debug: 1248 810 batch.c:199 log_dmi_decoded(): read: dmstatus=0x430382 {version=0_13 anyresumeack=1 allresumeack=1 impebreak=1 authenticated=true anyhalted=1 allhalted=1}
Debug: 1249 810 riscv_reg.c:781 riscv_reg_flush_all(): [riscv.cpu0] Flushing register cache
Debug: 1250 810 riscv_reg.c:798 riscv_reg_flush_all(): [riscv.cpu0] Flush of register cache completed
Debug: 1251 810 riscv.c:4081 riscv_openocd_poll(): [riscv.cpu0] should_remain_halted=0, should_resume=0
Debug: 1252 810 riscv.c:4022 riscv_openocd_poll(): [riscv.cpu1] Polling all harts.
Debug: 1253 810 riscv.c:3845 riscv_poll_hart(): [riscv.cpu1] polling, target->state=2
Debug: 1254 810 batch.c:291 riscv_batch_run_from(): [riscv.cpu1] Running batch of scans [0, 2)
Debug: 1255 811 batch.c:255 log_batch(): 40b w 00010001 @10 -> + 00000000 @00; 0i
Debug: 1256 811 batch.c:199 log_dmi_decoded(): write: dmcontrol=0x10001 {dmactive=active hartsello=1}
Debug: 1257 811 batch.c:255 log_batch(): 40b - 00000000 @00 -> + 00010001 @10; 0i
Debug: 1258 811 batch.c:291 riscv_batch_run_from(): [riscv.cpu1] Running batch of scans [0, 2)
Debug: 1259 811 batch.c:255 log_batch(): 40b r 00000000 @11 -> + 00000000 @00; 0i
Debug: 1260 811 batch.c:255 log_batch(): 40b - 00000000 @00 -> + 00430382 @11; 0i
Debug: 1261 811 batch.c:199 log_dmi_decoded(): read: dmstatus=0x430382 {version=0_13 anyresumeack=1 allresumeack=1 impebreak=1 authenticated=true anyhalted=1 allhalted=1}
Debug: 1262 811 riscv_reg.c:781 riscv_reg_flush_all(): [riscv.cpu1] Flushing register cache
Debug: 1263 811 riscv_reg.c:798 riscv_reg_flush_all(): [riscv.cpu1] Flush of register cache completed
Debug: 1264 811 riscv.c:4081 riscv_openocd_poll(): [riscv.cpu1] should_remain_halted=0, should_resume=0
Debug: 1265 910 riscv.c:4022 riscv_openocd_poll(): [riscv.cpu0] Polling all harts.
Debug: 1266 910 riscv.c:3845 riscv_poll_hart(): [riscv.cpu0] polling, target->state=2
Debug: 1267 910 batch.c:291 riscv_batch_run_from(): [riscv.cpu0] Running batch of scans [0, 2)
Debug: 1268 911 batch.c:255 log_batch(): 40b w 00000001 @10 -> + 00000000 @00; 0i
Debug: 1269 911 batch.c:199 log_dmi_decoded(): write: dmcontrol=1 {dmactive=active}
Debug: 1270 911 batch.c:255 log_batch(): 40b - 00000000 @00 -> + 00000001 @10; 0i
Debug: 1271 911 batch.c:291 riscv_batch_run_from(): [riscv.cpu0] Running batch of scans [0, 2)
Debug: 1272 911 batch.c:255 log_batch(): 40b r 00000000 @11 -> + 00000000 @00; 0i
Debug: 1273 911 batch.c:255 log_batch(): 40b - 00000000 @00 -> + 00430382 @11; 0i
Debug: 1274 911 batch.c:199 log_dmi_decoded(): read: dmstatus=0x430382 {version=0_13 anyresumeack=1 allresumeack=1 impebreak=1 authenticated=true anyhalted=1 allhalted=1}
Debug: 1275 911 riscv_reg.c:781 riscv_reg_flush_all(): [riscv.cpu0] Flushing register cache
Debug: 1276 911 riscv_reg.c:798 riscv_reg_flush_all(): [riscv.cpu0] Flush of register cache completed
Debug: 1277 911 riscv.c:4081 riscv_openocd_poll(): [riscv.cpu0] should_remain_halted=0, should_resume=0
Debug: 1278 911 riscv.c:4022 riscv_openocd_poll(): [riscv.cpu1] Polling all harts.
Debug: 1279 911 riscv.c:3845 riscv_poll_hart(): [riscv.cpu1] polling, target->state=2
Debug: 1280 911 batch.c:291 riscv_batch_run_from(): [riscv.cpu1] Running batch of scans [0, 2)
Debug: 1281 911 batch.c:255 log_batch(): 40b w 00010001 @10 -> + 00000000 @00; 0i
Debug: 1282 911 batch.c:199 log_dmi_decoded(): write: dmcontrol=0x10001 {dmactive=active hartsello=1}
Debug: 1283 911 batch.c:255 log_batch(): 40b - 00000000 @00 -> + 00010001 @10; 0i
Debug: 1284 911 batch.c:291 riscv_batch_run_from(): [riscv.cpu1] Running batch of scans [0, 2)
Debug: 1285 912 batch.c:255 log_batch(): 40b r 00000000 @11 -> + 00000000 @00; 0i
Debug: 1286 912 batch.c:255 log_batch(): 40b - 00000000 @00 -> + 00430382 @11; 0i
Debug: 1287 912 batch.c:199 log_dmi_decoded(): read: dmstatus=0x430382 {version=0_13 anyresumeack=1 allresumeack=1 impebreak=1 authenticated=true anyhalted=1 allhalted=1}
Debug: 1288 912 riscv_reg.c:781 riscv_reg_flush_all(): [riscv.cpu1] Flushing register cache
Debug: 1289 912 riscv_reg.c:798 riscv_reg_flush_all(): [riscv.cpu1] Flush of register cache completed
Debug: 1290 912 riscv.c:4081 riscv_openocd_poll(): [riscv.cpu1] should_remain_halted=0, should_resume=0
Info : 1291 993 server.c:91 add_connection(): accepting 'gdb' connection on tcp/0
Debug: 1292 993 breakpoints.c:330 breakpoint_remove_all_internal(): [riscv.cpu0] Delete all breakpoints
Debug: 1293 993 breakpoints.c:417 watchpoint_remove_all_internal(): [riscv.cpu0] Delete all watchpoints
Debug: 1294 993 target.c:1826 target_call_event_callbacks(): target event 22 (gdb-attach) for core riscv.cpu0
Debug: 1295 993 target.c:4705 target_handle_event(): target: riscv.cpu0 (riscv) event: 22 (gdb-attach) action: halt 1000
Debug: 1296 993 command.c:82 script_debug(): command - halt 1000
Debug: 1297 993 target.c:3269 handle_halt_command(): -
Debug: 1298 993 riscv.c:2727 riscv_halt(): [riscv.cpu0] halting all harts
Debug: 1299 993 riscv.c:2648 halt_prep(): [riscv.cpu0] prep hart, debug_reason=0
Debug: 1300 993 riscv.c:2651 halt_prep(): [riscv.cpu0] Hart is already halted.
Debug: 1301 993 batch.c:291 riscv_batch_run_from(): [riscv.cpu0] Running batch of scans [0, 2)
Debug: 1302 993 batch.c:255 log_batch(): 40b w 00000001 @10 -> + 00000000 @00; 0i
Debug: 1303 993 batch.c:199 log_dmi_decoded(): write: dmcontrol=1 {dmactive=active}
Debug: 1304 993 batch.c:255 log_batch(): 40b - 00000000 @00 -> + 00000001 @10; 0i
Debug: 1305 993 batch.c:291 riscv_batch_run_from(): [riscv.cpu0] Running batch of scans [0, 2)
Debug: 1306 994 batch.c:255 log_batch(): 40b r 00000000 @11 -> + 00000000 @00; 0i
Debug: 1307 994 batch.c:255 log_batch(): 40b - 00000000 @00 -> + 00430382 @11; 0i
Debug: 1308 994 batch.c:199 log_dmi_decoded(): read: dmstatus=0x430382 {version=0_13 anyresumeack=1 allresumeack=1 impebreak=1 authenticated=true anyhalted=1 allhalted=1}
Debug: 1309 994 riscv.c:2671 riscv_halt_go_all_harts(): [riscv.cpu0] Hart is already halted.
Debug: 1310 994 target.c:1826 target_call_event_callbacks(): target event 0 (gdb-halt) for core riscv.cpu0
Debug: 1311 994 target.c:1826 target_call_event_callbacks(): target event 1 (halted) for core riscv.cpu0
User : 1312 994 riscv.c:3572 riscv_arch_state(): riscv.cpu0 halted due to debug-request. Semihosting is active.
Debug: 1313 994 riscv.c:4022 riscv_openocd_poll(): [riscv.cpu0] Polling all harts.
Debug: 1314 994 riscv.c:3845 riscv_poll_hart(): [riscv.cpu0] polling, target->state=2
Debug: 1315 994 batch.c:291 riscv_batch_run_from(): [riscv.cpu0] Running batch of scans [0, 2)
Debug: 1316 994 batch.c:255 log_batch(): 40b r 00000000 @11 -> + 00000000 @00; 0i
Debug: 1317 994 batch.c:255 log_batch(): 40b - 00000000 @00 -> + 00430382 @11; 0i
Debug: 1318 994 batch.c:199 log_dmi_decoded(): read: dmstatus=0x430382 {version=0_13 anyresumeack=1 allresumeack=1 impebreak=1 authenticated=true anyhalted=1 allhalted=1}
Debug: 1319 994 riscv_reg.c:781 riscv_reg_flush_all(): [riscv.cpu0] Flushing register cache
Debug: 1320 994 riscv_reg.c:798 riscv_reg_flush_all(): [riscv.cpu0] Flush of register cache completed
Debug: 1321 994 riscv.c:4081 riscv_openocd_poll(): [riscv.cpu0] should_remain_halted=0, should_resume=0
Info : 1322 994 gdb_server.c:1095 gdb_new_connection(): New GDB Connection: 1, Target riscv.cpu0, state: halted
Debug: 1323 994 gdb_server.c:408 gdb_log_incoming_packet(): [riscv.cpu0] {1} received packet: qSupported:multiprocess+;swbreak+;hwbreak+;qRelocInsn+;fork-events+;vfork-events+;exec-events+;vContSupported+;QThreadEvents+;no-resumed+;memory-tagging+
Debug: 1324 994 riscv.c:3513 riscv_get_gdb_reg_list_internal(): [riscv.cpu0] reg_class=0, read=0
Debug: 1325 994 gdb_server.c:425 gdb_log_outgoing_packet(): [riscv.cpu0] {1} sending packet: $PacketSize=4000;qXfer:memory-map:read-;qXfer:features:read+;qXfer:threads:read+;QStartNoAckMode+;vContSupported+#04
Debug: 1326 994 gdb_server.c:408 gdb_log_incoming_packet(): [riscv.cpu0] {1} received packet: +
Debug: 1327 994 gdb_server.c:408 gdb_log_incoming_packet(): [riscv.cpu0] {1} received packet: vMustReplyEmpty
Debug: 1328 994 gdb_server.c:425 gdb_log_outgoing_packet(): [riscv.cpu0] {1} sending packet: $#00
Debug: 1329 994 gdb_server.c:408 gdb_log_incoming_packet(): [riscv.cpu0] {1} received packet: +
Debug: 1330 995 gdb_server.c:408 gdb_log_incoming_packet(): [riscv.cpu0] {1} received packet: QStartNoAckMode
Debug: 1331 995 gdb_server.c:425 gdb_log_outgoing_packet(): [riscv.cpu0] {1} sending packet: $OK#9a
Debug: 1332 995 gdb_server.c:408 gdb_log_incoming_packet(): [riscv.cpu0] {1} received packet: +
Debug: 1333 995 gdb_server.c:716 gdb_get_packet_inner(): Received first acknowledgment after entering noack mode. Ignoring it.
Debug: 1334 995 gdb_server.c:408 gdb_log_incoming_packet(): [riscv.cpu0] {1} received packet: !
Debug: 1335 995 gdb_server.c:425 gdb_log_outgoing_packet(): [riscv.cpu0] {1} sending packet: $OK#9a
Debug: 1336 995 gdb_server.c:408 gdb_log_incoming_packet(): [riscv.cpu0] {1} received packet: Hg0
Debug: 1337 995 gdb_server.c:425 gdb_log_outgoing_packet(): [riscv.cpu0] {1} sending packet: $OK#9a
Debug: 1338 995 gdb_server.c:408 gdb_log_incoming_packet(): [riscv.cpu0] {1} received packet: qXfer:features:read:target.xml:0,1000
Debug: 1339 995 riscv.c:3513 riscv_get_gdb_reg_list_internal(): [riscv.cpu0] reg_class=0, read=0
Debug: 1340 995 gdb_server.c:422 gdb_log_outgoing_packet(): [riscv.cpu0] {1} sending packet: $<binary-data-4097-bytes>#2d
Debug: 1341 996 gdb_server.c:408 gdb_log_incoming_packet(): [riscv.cpu0] {1} received packet: qXfer:features:read:target.xml:1000,1000
Debug: 1342 996 gdb_server.c:422 gdb_log_outgoing_packet(): [riscv.cpu0] {1} sending packet: $<binary-data-4097-bytes>#f2
Debug: 1343 996 gdb_server.c:408 gdb_log_incoming_packet(): [riscv.cpu0] {1} received packet: qXfer:features:read:target.xml:2000,1000
Debug: 1344 996 gdb_server.c:422 gdb_log_outgoing_packet(): [riscv.cpu0] {1} sending packet: $<binary-data-4097-bytes>#c9
Debug: 1345 996 gdb_server.c:408 gdb_log_incoming_packet(): [riscv.cpu0] {1} received packet: qXfer:features:read:target.xml:3000,1000
Debug: 1346 996 gdb_server.c:422 gdb_log_outgoing_packet(): [riscv.cpu0] {1} sending packet: $<binary-data-4097-bytes>#fb
Debug: 1347 997 gdb_server.c:408 gdb_log_incoming_packet(): [riscv.cpu0] {1} received packet: qXfer:features:read:target.xml:4000,1000
Debug: 1348 997 gdb_server.c:422 gdb_log_outgoing_packet(): [riscv.cpu0] {1} sending packet: $<binary-data-4097-bytes>#e9
Debug: 1349 997 gdb_server.c:408 gdb_log_incoming_packet(): [riscv.cpu0] {1} received packet: qXfer:features:read:target.xml:5000,1000
Debug: 1350 997 gdb_server.c:422 gdb_log_outgoing_packet(): [riscv.cpu0] {1} sending packet: $<binary-data-4097-bytes>#99
Debug: 1351 997 gdb_server.c:408 gdb_log_incoming_packet(): [riscv.cpu0] {1} received packet: qXfer:features:read:target.xml:6000,1000
Debug: 1352 997 gdb_server.c:422 gdb_log_outgoing_packet(): [riscv.cpu0] {1} sending packet: $<binary-data-4097-bytes>#c1
Debug: 1353 998 gdb_server.c:408 gdb_log_incoming_packet(): [riscv.cpu0] {1} received packet: qXfer:features:read:target.xml:7000,1000
Debug: 1354 998 gdb_server.c:422 gdb_log_outgoing_packet(): [riscv.cpu0] {1} sending packet: $<binary-data-4097-bytes>#55
Debug: 1355 998 gdb_server.c:408 gdb_log_incoming_packet(): [riscv.cpu0] {1} received packet: qXfer:features:read:target.xml:8000,1000
Debug: 1356 998 gdb_server.c:422 gdb_log_outgoing_packet(): [riscv.cpu0] {1} sending packet: $<binary-data-3754-bytes>#8d
Debug: 1357 1004 gdb_server.c:408 gdb_log_incoming_packet(): [riscv.cpu0] {1} received packet: qTStatus
Debug: 1358 1004 gdb_server.c:425 gdb_log_outgoing_packet(): [riscv.cpu0] {1} sending packet: $#00
Debug: 1359 1004 gdb_server.c:408 gdb_log_incoming_packet(): [riscv.cpu0] {1} received packet: ?
Debug: 1360 1004 gdb_server.c:179 gdb_last_signal(): [riscv.cpu0] Debug reason is: DBGRQ
Debug: 1361 1004 gdb_server.c:425 gdb_log_outgoing_packet(): [riscv.cpu0] {1} sending packet: $S02#b5
Debug: 1362 1004 gdb_server.c:408 gdb_log_incoming_packet(): [riscv.cpu0] {1} received packet: qXfer:threads:read::0,1000
Debug: 1363 1004 gdb_server.c:422 gdb_log_outgoing_packet(): [riscv.cpu0] {1} sending packet: $<binary-data-44-bytes>#02
Debug: 1364 1005 gdb_server.c:408 gdb_log_incoming_packet(): [riscv.cpu0] {1} received packet: Hc-1
Debug: 1365 1005 gdb_server.c:425 gdb_log_outgoing_packet(): [riscv.cpu0] {1} sending packet: $OK#9a
Debug: 1366 1005 gdb_server.c:408 gdb_log_incoming_packet(): [riscv.cpu0] {1} received packet: qC
Debug: 1367 1005 gdb_server.c:425 gdb_log_outgoing_packet(): [riscv.cpu0] {1} sending packet: $QC0#c4
Debug: 1368 1005 gdb_server.c:408 gdb_log_incoming_packet(): [riscv.cpu0] {1} received packet: qAttached
Debug: 1369 1005 gdb_server.c:425 gdb_log_outgoing_packet(): [riscv.cpu0] {1} sending packet: $1#31
Debug: 1370 1005 gdb_server.c:408 gdb_log_incoming_packet(): [riscv.cpu0] {1} received packet: g
Debug: 1371 1005 riscv.c:3513 riscv_get_gdb_reg_list_internal(): [riscv.cpu0] reg_class=1, read=1
Debug: 1372 1005 riscv_reg.c:979 riscv_reg_get(): [riscv.cpu0] Reading zero from target
Debug: 1373 1005 riscv-013.c:5109 riscv013_get_register(): [riscv.cpu0] reading register zero
Debug: 1374 1005 riscv-013.c:1633 register_read_direct(): [riscv.cpu0] Reading zero
Debug: 1375 1005 riscv-013.c:745 riscv013_execute_abstract_command(): [riscv.cpu0] access register=0x321000 {regno=0x1000 write=arg0 transfer=enabled postexec=disabled aarpostincrement=disabled aarsize=64bit}
Debug: 1376 1005 batch.c:291 riscv_batch_run_from(): [riscv.cpu0] Running batch of scans [0, 3)
Debug: 1377 1006 batch.c:255 log_batch(): 40b w 00321000 @17 -> + 00000000 @00; 4i
Debug: 1378 1006 batch.c:199 log_dmi_decoded(): write: command=0x321000 {control=0x321000}
Debug: 1379 1006 batch.c:255 log_batch(): 40b r 00000000 @16 -> + 00321000 @17; 0i
Debug: 1380 1006 batch.c:255 log_batch(): 40b - 00000000 @00 -> + 02000002 @16; 0i
Debug: 1381 1006 batch.c:199 log_dmi_decoded(): read: abstractcs=0x2000002 {datacount=2 progbufsize=2}
Debug: 1382 1006 riscv-013.c:680 abstract_cmd_batch_check_and_clear_cmderr(): [riscv.cpu0] abstractcs=0x2000002 {datacount=2 relaxedpriv=full_checks busy=ready progbufsize=2 cmderr=none}
Debug: 1383 1006 batch.c:291 riscv_batch_run_from(): [riscv.cpu0] Running batch of scans [0, 3)
Debug: 1384 1007 batch.c:255 log_batch(): 40b r 00000000 @04 -> + 00000000 @00; 0i
Debug: 1385 1007 batch.c:255 log_batch(): 40b r 00000000 @05 -> + 00000000 @04; 0i
Debug: 1386 1007 batch.c:199 log_dmi_decoded(): read: 
Debug: 1387 1007 batch.c:255 log_batch(): 40b - 00000000 @00 -> + 00000000 @05; 0i
Debug: 1388 1007 batch.c:199 log_dmi_decoded(): read: 
Debug: 1389 1007 riscv-013.c:1652 register_read_direct(): [riscv.cpu0] zero = 0x0
Debug: 1390 1007 riscv_reg.c:988 riscv_reg_get(): [riscv.cpu0] Read zero: 0x0
Debug: 1391 1007 riscv-013_reg.c:40 riscv013_reg_get(): [riscv.cpu0] Read 0x0000000000000000 from zero (valid=1).
Debug: 1392 1007 riscv_reg.c:979 riscv_reg_get(): [riscv.cpu0] Reading ra from target
Debug: 1393 1007 riscv-013.c:5109 riscv013_get_register(): [riscv.cpu0] reading register ra
Debug: 1394 1007 riscv-013.c:1633 register_read_direct(): [riscv.cpu0] Reading ra
Debug: 1395 1007 riscv-013.c:745 riscv013_execute_abstract_command(): [riscv.cpu0] access register=0x321001 {regno=0x1001 write=arg0 transfer=enabled postexec=disabled aarpostincrement=disabled aarsize=64bit}
Debug: 1396 1007 batch.c:291 riscv_batch_run_from(): [riscv.cpu0] Running batch of scans [0, 3)
Debug: 1397 1007 batch.c:255 log_batch(): 40b w 00321001 @17 -> + 00000000 @00; 4i
Debug: 1398 1007 batch.c:199 log_dmi_decoded(): write: command=0x321001 {control=0x321001}
Debug: 1399 1007 batch.c:255 log_batch(): 40b r 00000000 @16 -> + 00321001 @17; 0i
Debug: 1400 1007 batch.c:255 log_batch(): 40b - 00000000 @00 -> + 02000002 @16; 0i
Debug: 1401 1007 batch.c:199 log_dmi_decoded(): read: abstractcs=0x2000002 {datacount=2 progbufsize=2}
Debug: 1402 1007 riscv-013.c:680 abstract_cmd_batch_check_and_clear_cmderr(): [riscv.cpu0] abstractcs=0x2000002 {datacount=2 relaxedpriv=full_checks busy=ready progbufsize=2 cmderr=none}
Debug: 1403 1007 batch.c:291 riscv_batch_run_from(): [riscv.cpu0] Running batch of scans [0, 3)
Debug: 1404 1007 batch.c:255 log_batch(): 40b r 00000000 @04 -> + 00000000 @00; 0i
Debug: 1405 1007 batch.c:255 log_batch(): 40b r 00000000 @05 -> + 00000000 @04; 0i
Debug: 1406 1007 batch.c:199 log_dmi_decoded(): read: 
Debug: 1407 1008 batch.c:255 log_batch(): 40b - 00000000 @00 -> + 00000000 @05; 0i
Debug: 1408 1008 batch.c:199 log_dmi_decoded(): read: 
Debug: 1409 1008 riscv-013.c:1652 register_read_direct(): [riscv.cpu0] ra = 0x0
Debug: 1410 1008 riscv_reg.c:988 riscv_reg_get(): [riscv.cpu0] Read ra: 0x0
Debug: 1411 1008 riscv-013_reg.c:40 riscv013_reg_get(): [riscv.cpu0] Read 0x0000000000000000 from ra (valid=1).
Debug: 1412 1008 riscv_reg.c:979 riscv_reg_get(): [riscv.cpu0] Reading sp from target
Debug: 1413 1008 riscv-013.c:5109 riscv013_get_register(): [riscv.cpu0] reading register sp
Debug: 1414 1008 riscv-013.c:1633 register_read_direct(): [riscv.cpu0] Reading sp
Debug: 1415 1008 riscv-013.c:745 riscv013_execute_abstract_command(): [riscv.cpu0] access register=0x321002 {regno=0x1002 write=arg0 transfer=enabled postexec=disabled aarpostincrement=disabled aarsize=64bit}
Debug: 1416 1008 batch.c:291 riscv_batch_run_from(): [riscv.cpu0] Running batch of scans [0, 3)
Debug: 1417 1008 batch.c:255 log_batch(): 40b w 00321002 @17 -> + 00000000 @00; 4i
Debug: 1418 1008 batch.c:199 log_dmi_decoded(): write: command=0x321002 {control=0x321002}
Debug: 1419 1008 batch.c:255 log_batch(): 40b r 00000000 @16 -> + 00321002 @17; 0i
Debug: 1420 1008 batch.c:255 log_batch(): 40b - 00000000 @00 -> + 02000002 @16; 0i
Debug: 1421 1008 batch.c:199 log_dmi_decoded(): read: abstractcs=0x2000002 {datacount=2 progbufsize=2}
Debug: 1422 1008 riscv-013.c:680 abstract_cmd_batch_check_and_clear_cmderr(): [riscv.cpu0] abstractcs=0x2000002 {datacount=2 relaxedpriv=full_checks busy=ready progbufsize=2 cmderr=none}
Debug: 1423 1008 batch.c:291 riscv_batch_run_from(): [riscv.cpu0] Running batch of scans [0, 3)
Debug: 1424 1008 batch.c:255 log_batch(): 40b r 00000000 @04 -> + 00000000 @00; 0i
Debug: 1425 1008 batch.c:255 log_batch(): 40b r 00000000 @05 -> + 00000001 @04; 0i
Debug: 1426 1008 batch.c:199 log_dmi_decoded(): read: 
Debug: 1427 1008 batch.c:255 log_batch(): 40b - 00000000 @00 -> + 00000000 @05; 0i
Debug: 1428 1008 batch.c:199 log_dmi_decoded(): read: 
Debug: 1429 1008 riscv-013.c:1652 register_read_direct(): [riscv.cpu0] sp = 0x1
Debug: 1430 1008 riscv_reg.c:988 riscv_reg_get(): [riscv.cpu0] Read sp: 0x1
Debug: 1431 1008 riscv-013_reg.c:40 riscv013_reg_get(): [riscv.cpu0] Read 0x0000000000000001 from sp (valid=1).
Debug: 1432 1008 riscv_reg.c:979 riscv_reg_get(): [riscv.cpu0] Reading gp from target
Debug: 1433 1008 riscv-013.c:5109 riscv013_get_register(): [riscv.cpu0] reading register gp
Debug: 1434 1008 riscv-013.c:1633 register_read_direct(): [riscv.cpu0] Reading gp
Debug: 1435 1008 riscv-013.c:745 riscv013_execute_abstract_command(): [riscv.cpu0] access register=0x321003 {regno=0x1003 write=arg0 transfer=enabled postexec=disabled aarpostincrement=disabled aarsize=64bit}
Debug: 1436 1008 batch.c:291 riscv_batch_run_from(): [riscv.cpu0] Running batch of scans [0, 3)
Debug: 1437 1009 batch.c:255 log_batch(): 40b w 00321003 @17 -> + 00000000 @00; 4i
Debug: 1438 1009 batch.c:199 log_dmi_decoded(): write: command=0x321003 {control=0x321003}
Debug: 1439 1009 batch.c:255 log_batch(): 40b r 00000000 @16 -> + 00321003 @17; 0i
Debug: 1440 1009 batch.c:255 log_batch(): 40b - 00000000 @00 -> + 02000002 @16; 0i
Debug: 1441 1009 batch.c:199 log_dmi_decoded(): read: abstractcs=0x2000002 {datacount=2 progbufsize=2}
Debug: 1442 1009 riscv-013.c:680 abstract_cmd_batch_check_and_clear_cmderr(): [riscv.cpu0] abstractcs=0x2000002 {datacount=2 relaxedpriv=full_checks busy=ready progbufsize=2 cmderr=none}
Debug: 1443 1009 batch.c:291 riscv_batch_run_from(): [riscv.cpu0] Running batch of scans [0, 3)
Debug: 1444 1009 batch.c:255 log_batch(): 40b r 00000000 @04 -> + 00000000 @00; 0i
Debug: 1445 1009 batch.c:255 log_batch(): 40b r 00000000 @05 -> + 00000002 @04; 0i
Debug: 1446 1009 batch.c:199 log_dmi_decoded(): read: 
Debug: 1447 1009 batch.c:255 log_batch(): 40b - 00000000 @00 -> + 00000000 @05; 0i
Debug: 1448 1009 batch.c:199 log_dmi_decoded(): read: 
Debug: 1449 1009 riscv-013.c:1652 register_read_direct(): [riscv.cpu0] gp = 0x2
Debug: 1450 1009 riscv_reg.c:988 riscv_reg_get(): [riscv.cpu0] Read gp: 0x2
Debug: 1451 1009 riscv-013_reg.c:40 riscv013_reg_get(): [riscv.cpu0] Read 0x0000000000000002 from gp (valid=1).
Debug: 1452 1009 riscv_reg.c:979 riscv_reg_get(): [riscv.cpu0] Reading tp from target
Debug: 1453 1009 riscv-013.c:5109 riscv013_get_register(): [riscv.cpu0] reading register tp
Debug: 1454 1009 riscv-013.c:1633 register_read_direct(): [riscv.cpu0] Reading tp
Debug: 1455 1009 riscv-013.c:745 riscv013_execute_abstract_command(): [riscv.cpu0] access register=0x321004 {regno=0x1004 write=arg0 transfer=enabled postexec=disabled aarpostincrement=disabled aarsize=64bit}
Debug: 1456 1009 batch.c:291 riscv_batch_run_from(): [riscv.cpu0] Running batch of scans [0, 3)
Debug: 1457 1010 batch.c:255 log_batch(): 40b w 00321004 @17 -> + 00000000 @00; 4i
Debug: 1458 1010 batch.c:199 log_dmi_decoded(): write: command=0x321004 {control=0x321004}
Debug: 1459 1010 batch.c:255 log_batch(): 40b r 00000000 @16 -> + 00321004 @17; 0i
Debug: 1460 1010 batch.c:255 log_batch(): 40b - 00000000 @00 -> + 02000002 @16; 0i
Debug: 1461 1010 batch.c:199 log_dmi_decoded(): read: abstractcs=0x2000002 {datacount=2 progbufsize=2}
Debug: 1462 1010 riscv-013.c:680 abstract_cmd_batch_check_and_clear_cmderr(): [riscv.cpu0] abstractcs=0x2000002 {datacount=2 relaxedpriv=full_checks busy=ready progbufsize=2 cmderr=none}
Debug: 1463 1010 batch.c:291 riscv_batch_run_from(): [riscv.cpu0] Running batch of scans [0, 3)
Debug: 1464 1010 batch.c:255 log_batch(): 40b r 00000000 @04 -> + 00000000 @00; 0i
Debug: 1465 1010 batch.c:255 log_batch(): 40b r 00000000 @05 -> + 00000003 @04; 0i
Debug: 1466 1010 batch.c:199 log_dmi_decoded(): read: 
Debug: 1467 1010 batch.c:255 log_batch(): 40b - 00000000 @00 -> + 00000000 @05; 0i
Debug: 1468 1010 batch.c:199 log_dmi_decoded(): read: 
Debug: 1469 1010 riscv-013.c:1652 register_read_direct(): [riscv.cpu0] tp = 0x3
Debug: 1470 1010 riscv_reg.c:988 riscv_reg_get(): [riscv.cpu0] Read tp: 0x3
Debug: 1471 1010 riscv-013_reg.c:40 riscv013_reg_get(): [riscv.cpu0] Read 0x0000000000000003 from tp (valid=1).
Debug: 1472 1010 riscv_reg.c:979 riscv_reg_get(): [riscv.cpu0] Reading t0 from target
Debug: 1473 1010 riscv-013.c:5109 riscv013_get_register(): [riscv.cpu0] reading register t0
Debug: 1474 1010 riscv-013.c:1633 register_read_direct(): [riscv.cpu0] Reading t0
Debug: 1475 1010 riscv-013.c:745 riscv013_execute_abstract_command(): [riscv.cpu0] access register=0x321005 {regno=0x1005 write=arg0 transfer=enabled postexec=disabled aarpostincrement=disabled aarsize=64bit}
Debug: 1476 1010 batch.c:291 riscv_batch_run_from(): [riscv.cpu0] Running batch of scans [0, 3)
Debug: 1477 1011 batch.c:255 log_batch(): 40b w 00321005 @17 -> + 00000000 @00; 4i
Debug: 1478 1011 batch.c:199 log_dmi_decoded(): write: command=0x321005 {control=0x321005}
Debug: 1479 1011 batch.c:255 log_batch(): 40b r 00000000 @16 -> + 00321005 @17; 0i
Debug: 1480 1011 batch.c:255 log_batch(): 40b - 00000000 @00 -> + 02000002 @16; 0i
Debug: 1481 1011 batch.c:199 log_dmi_decoded(): read: abstractcs=0x2000002 {datacount=2 progbufsize=2}
Debug: 1482 1011 riscv-013.c:680 abstract_cmd_batch_check_and_clear_cmderr(): [riscv.cpu0] abstractcs=0x2000002 {datacount=2 relaxedpriv=full_checks busy=ready progbufsize=2 cmderr=none}
Debug: 1483 1011 batch.c:291 riscv_batch_run_from(): [riscv.cpu0] Running batch of scans [0, 3)
Debug: 1484 1011 batch.c:255 log_batch(): 40b r 00000000 @04 -> + 00000000 @00; 0i
Debug: 1485 1011 batch.c:255 log_batch(): 40b r 00000000 @05 -> + 00000004 @04; 0i
Debug: 1486 1011 batch.c:199 log_dmi_decoded(): read: 
Debug: 1487 1011 batch.c:255 log_batch(): 40b - 00000000 @00 -> + 00000000 @05; 0i
Debug: 1488 1011 batch.c:199 log_dmi_decoded(): read: 
Debug: 1489 1011 riscv-013.c:1652 register_read_direct(): [riscv.cpu0] t0 = 0x4
Debug: 1490 1011 riscv_reg.c:988 riscv_reg_get(): [riscv.cpu0] Read t0: 0x4
Debug: 1491 1011 riscv-013_reg.c:40 riscv013_reg_get(): [riscv.cpu0] Read 0x0000000000000004 from t0 (valid=1).
Debug: 1492 1011 riscv_reg.c:979 riscv_reg_get(): [riscv.cpu0] Reading t1 from target
Debug: 1493 1011 riscv-013.c:5109 riscv013_get_register(): [riscv.cpu0] reading register t1
Debug: 1494 1011 riscv-013.c:1633 register_read_direct(): [riscv.cpu0] Reading t1
Debug: 1495 1011 riscv-013.c:745 riscv013_execute_abstract_command(): [riscv.cpu0] access register=0x321006 {regno=0x1006 write=arg0 transfer=enabled postexec=disabled aarpostincrement=disabled aarsize=64bit}
Debug: 1496 1011 batch.c:291 riscv_batch_run_from(): [riscv.cpu0] Running batch of scans [0, 3)
Debug: 1497 1012 batch.c:255 log_batch(): 40b w 00321006 @17 -> + 00000000 @00; 4i
Debug: 1498 1012 batch.c:199 log_dmi_decoded(): write: command=0x321006 {control=0x321006}
Debug: 1499 1012 batch.c:255 log_batch(): 40b r 00000000 @16 -> + 00321006 @17; 0i
Debug: 1500 1012 batch.c:255 log_batch(): 40b - 00000000 @00 -> + 02000002 @16; 0i
Debug: 1501 1012 batch.c:199 log_dmi_decoded(): read: abstractcs=0x2000002 {datacount=2 progbufsize=2}
Debug: 1502 1012 riscv-013.c:680 abstract_cmd_batch_check_and_clear_cmderr(): [riscv.cpu0] abstractcs=0x2000002 {datacount=2 relaxedpriv=full_checks busy=ready progbufsize=2 cmderr=none}
Debug: 1503 1012 batch.c:291 riscv_batch_run_from(): [riscv.cpu0] Running batch of scans [0, 3)
Debug: 1504 1012 batch.c:255 log_batch(): 40b r 00000000 @04 -> + 00000000 @00; 0i
Debug: 1505 1012 batch.c:255 log_batch(): 40b r 00000000 @05 -> + 00000005 @04; 0i
Debug: 1506 1012 batch.c:199 log_dmi_decoded(): read: 
Debug: 1507 1012 batch.c:255 log_batch(): 40b - 00000000 @00 -> + 00000000 @05; 0i
Debug: 1508 1012 batch.c:199 log_dmi_decoded(): read: 
Debug: 1509 1012 riscv-013.c:1652 register_read_direct(): [riscv.cpu0] t1 = 0x5
Debug: 1510 1012 riscv_reg.c:988 riscv_reg_get(): [riscv.cpu0] Read t1: 0x5
Debug: 1511 1012 riscv-013_reg.c:40 riscv013_reg_get(): [riscv.cpu0] Read 0x0000000000000005 from t1 (valid=1).
Debug: 1512 1012 riscv_reg.c:979 riscv_reg_get(): [riscv.cpu0] Reading t2 from target
Debug: 1513 1012 riscv-013.c:5109 riscv013_get_register(): [riscv.cpu0] reading register t2
Debug: 1514 1012 riscv-013.c:1633 register_read_direct(): [riscv.cpu0] Reading t2
Debug: 1515 1012 riscv-013.c:745 riscv013_execute_abstract_command(): [riscv.cpu0] access register=0x321007 {regno=0x1007 write=arg0 transfer=enabled postexec=disabled aarpostincrement=disabled aarsize=64bit}
Debug: 1516 1012 batch.c:291 riscv_batch_run_from(): [riscv.cpu0] Running batch of scans [0, 3)
Debug: 1517 1013 batch.c:255 log_batch(): 40b w 00321007 @17 -> + 00000000 @00; 4i
Debug: 1518 1013 batch.c:199 log_dmi_decoded(): write: command=0x321007 {control=0x321007}
Debug: 1519 1013 batch.c:255 log_batch(): 40b r 00000000 @16 -> + 00321007 @17; 0i
Debug: 1520 1013 batch.c:255 log_batch(): 40b - 00000000 @00 -> + 02000002 @16; 0i
Debug: 1521 1013 batch.c:199 log_dmi_decoded(): read: abstractcs=0x2000002 {datacount=2 progbufsize=2}
Debug: 1522 1013 riscv-013.c:680 abstract_cmd_batch_check_and_clear_cmderr(): [riscv.cpu0] abstractcs=0x2000002 {datacount=2 relaxedpriv=full_checks busy=ready progbufsize=2 cmderr=none}
Debug: 1523 1013 batch.c:291 riscv_batch_run_from(): [riscv.cpu0] Running batch of scans [0, 3)
Debug: 1524 1013 batch.c:255 log_batch(): 40b r 00000000 @04 -> + 00000000 @00; 0i
Debug: 1525 1013 batch.c:255 log_batch(): 40b r 00000000 @05 -> + 00000006 @04; 0i
Debug: 1526 1013 batch.c:199 log_dmi_decoded(): read: 
Debug: 1527 1013 batch.c:255 log_batch(): 40b - 00000000 @00 -> + 00000000 @05; 0i
Debug: 1528 1013 batch.c:199 log_dmi_decoded(): read: 
Debug: 1529 1013 riscv-013.c:1652 register_read_direct(): [riscv.cpu0] t2 = 0x6
Debug: 1530 1013 riscv_reg.c:988 riscv_reg_get(): [riscv.cpu0] Read t2: 0x6
Debug: 1531 1013 riscv-013_reg.c:40 riscv013_reg_get(): [riscv.cpu0] Read 0x0000000000000006 from t2 (valid=1).
Debug: 1532 1013 riscv_reg.c:979 riscv_reg_get(): [riscv.cpu0] Reading fp from target
Debug: 1533 1013 riscv-013.c:5109 riscv013_get_register(): [riscv.cpu0] reading register fp
Debug: 1534 1013 riscv-013.c:1633 register_read_direct(): [riscv.cpu0] Reading fp
Debug: 1535 1013 riscv-013.c:745 riscv013_execute_abstract_command(): [riscv.cpu0] access register=0x321008 {regno=0x1008 write=arg0 transfer=enabled postexec=disabled aarpostincrement=disabled aarsize=64bit}
Debug: 1536 1013 batch.c:291 riscv_batch_run_from(): [riscv.cpu0] Running batch of scans [0, 3)
Debug: 1537 1014 batch.c:255 log_batch(): 40b w 00321008 @17 -> + 00000000 @00; 4i
Debug: 1538 1014 batch.c:199 log_dmi_decoded(): write: command=0x321008 {control=0x321008}
Debug: 1539 1014 batch.c:255 log_batch(): 40b r 00000000 @16 -> + 00321008 @17; 0i
Debug: 1540 1014 batch.c:255 log_batch(): 40b - 00000000 @00 -> + 02000002 @16; 0i
Debug: 1541 1014 batch.c:199 log_dmi_decoded(): read: abstractcs=0x2000002 {datacount=2 progbufsize=2}
Debug: 1542 1014 riscv-013.c:680 abstract_cmd_batch_check_and_clear_cmderr(): [riscv.cpu0] abstractcs=0x2000002 {datacount=2 relaxedpriv=full_checks busy=ready progbufsize=2 cmderr=none}
Debug: 1543 1014 batch.c:291 riscv_batch_run_from(): [riscv.cpu0] Running batch of scans [0, 3)
Debug: 1544 1014 batch.c:255 log_batch(): 40b r 00000000 @04 -> + 00000000 @00; 0i
Debug: 1545 1014 batch.c:255 log_batch(): 40b r 00000000 @05 -> + 00000007 @04; 0i
Debug: 1546 1014 batch.c:199 log_dmi_decoded(): read: 
Debug: 1547 1014 batch.c:255 log_batch(): 40b - 00000000 @00 -> + 00000000 @05; 0i
Debug: 1548 1014 batch.c:199 log_dmi_decoded(): read: 
Debug: 1549 1014 riscv-013.c:1652 register_read_direct(): [riscv.cpu0] fp = 0x7
Debug: 1550 1014 riscv_reg.c:988 riscv_reg_get(): [riscv.cpu0] Read fp: 0x7
Debug: 1551 1014 riscv-013_reg.c:40 riscv013_reg_get(): [riscv.cpu0] Read 0x0000000000000007 from fp (valid=1).
Debug: 1552 1014 riscv_reg.c:979 riscv_reg_get(): [riscv.cpu0] Reading s1 from target
Debug: 1553 1014 riscv-013.c:5109 riscv013_get_register(): [riscv.cpu0] reading register s1
Debug: 1554 1014 riscv-013.c:1633 register_read_direct(): [riscv.cpu0] Reading s1
Debug: 1555 1014 riscv-013.c:745 riscv013_execute_abstract_command(): [riscv.cpu0] access register=0x321009 {regno=0x1009 write=arg0 transfer=enabled postexec=disabled aarpostincrement=disabled aarsize=64bit}
Debug: 1556 1014 batch.c:291 riscv_batch_run_from(): [riscv.cpu0] Running batch of scans [0, 3)
Debug: 1557 1014 batch.c:255 log_batch(): 40b w 00321009 @17 -> + 00000000 @00; 4i
Debug: 1558 1015 batch.c:199 log_dmi_decoded(): write: command=0x321009 {control=0x321009}
Debug: 1559 1015 batch.c:255 log_batch(): 40b r 00000000 @16 -> + 00321009 @17; 0i
Debug: 1560 1015 batch.c:255 log_batch(): 40b - 00000000 @00 -> + 02000002 @16; 0i
Debug: 1561 1015 batch.c:199 log_dmi_decoded(): read: abstractcs=0x2000002 {datacount=2 progbufsize=2}
Debug: 1562 1015 riscv-013.c:680 abstract_cmd_batch_check_and_clear_cmderr(): [riscv.cpu0] abstractcs=0x2000002 {datacount=2 relaxedpriv=full_checks busy=ready progbufsize=2 cmderr=none}
Debug: 1563 1015 batch.c:291 riscv_batch_run_from(): [riscv.cpu0] Running batch of scans [0, 3)
Debug: 1564 1015 batch.c:255 log_batch(): 40b r 00000000 @04 -> + 00000000 @00; 0i
Debug: 1565 1015 batch.c:255 log_batch(): 40b r 00000000 @05 -> + 00000008 @04; 0i
Debug: 1566 1015 batch.c:199 log_dmi_decoded(): read: 
Debug: 1567 1015 batch.c:255 log_batch(): 40b - 00000000 @00 -> + 00000000 @05; 0i
Debug: 1568 1015 batch.c:199 log_dmi_decoded(): read: 
Debug: 1569 1015 riscv-013.c:1652 register_read_direct(): [riscv.cpu0] s1 = 0x8
Debug: 1570 1015 riscv_reg.c:988 riscv_reg_get(): [riscv.cpu0] Read s1: 0x8
Debug: 1571 1015 riscv-013_reg.c:40 riscv013_reg_get(): [riscv.cpu0] Read 0x0000000000000008 from s1 (valid=1).
Debug: 1572 1015 riscv_reg.c:979 riscv_reg_get(): [riscv.cpu0] Reading a0 from target
Debug: 1573 1015 riscv-013.c:5109 riscv013_get_register(): [riscv.cpu0] reading register a0
Debug: 1574 1015 riscv-013.c:1633 register_read_direct(): [riscv.cpu0] Reading a0
Debug: 1575 1015 riscv-013.c:745 riscv013_execute_abstract_command(): [riscv.cpu0] access register=0x32100a {regno=0x100a write=arg0 transfer=enabled postexec=disabled aarpostincrement=disabled aarsize=64bit}
Debug: 1576 1015 batch.c:291 riscv_batch_run_from(): [riscv.cpu0] Running batch of scans [0, 3)
Debug: 1577 1015 batch.c:255 log_batch(): 40b w 0032100a @17 -> + 00000000 @00; 4i
Debug: 1578 1015 batch.c:199 log_dmi_decoded(): write: command=0x32100a {control=0x32100a}
Debug: 1579 1015 batch.c:255 log_batch(): 40b r 00000000 @16 -> + 0032100a @17; 0i
Debug: 1580 1015 batch.c:255 log_batch(): 40b - 00000000 @00 -> + 02000002 @16; 0i
Debug: 1581 1016 batch.c:199 log_dmi_decoded(): read: abstractcs=0x2000002 {datacount=2 progbufsize=2}
Debug: 1582 1016 riscv-013.c:680 abstract_cmd_batch_check_and_clear_cmderr(): [riscv.cpu0] abstractcs=0x2000002 {datacount=2 relaxedpriv=full_checks busy=ready progbufsize=2 cmderr=none}
Debug: 1583 1016 batch.c:291 riscv_batch_run_from(): [riscv.cpu0] Running batch of scans [0, 3)
Debug: 1584 1016 batch.c:255 log_batch(): 40b r 00000000 @04 -> + 00000000 @00; 0i
Debug: 1585 1016 batch.c:255 log_batch(): 40b r 00000000 @05 -> + 00000009 @04; 0i
Debug: 1586 1016 batch.c:199 log_dmi_decoded(): read: 
Debug: 1587 1016 batch.c:255 log_batch(): 40b - 00000000 @00 -> + 00000000 @05; 0i
Debug: 1588 1016 batch.c:199 log_dmi_decoded(): read: 
Debug: 1589 1016 riscv-013.c:1652 register_read_direct(): [riscv.cpu0] a0 = 0x9
Debug: 1590 1016 riscv_reg.c:988 riscv_reg_get(): [riscv.cpu0] Read a0: 0x9
Debug: 1591 1016 riscv-013_reg.c:40 riscv013_reg_get(): [riscv.cpu0] Read 0x0000000000000009 from a0 (valid=1).
Debug: 1592 1016 riscv_reg.c:979 riscv_reg_get(): [riscv.cpu0] Reading a1 from target
Debug: 1593 1016 riscv-013.c:5109 riscv013_get_register(): [riscv.cpu0] reading register a1
Debug: 1594 1016 riscv-013.c:1633 register_read_direct(): [riscv.cpu0] Reading a1
Debug: 1595 1016 riscv-013.c:745 riscv013_execute_abstract_command(): [riscv.cpu0] access register=0x32100b {regno=0x100b write=arg0 transfer=enabled postexec=disabled aarpostincrement=disabled aarsize=64bit}
Debug: 1596 1016 batch.c:291 riscv_batch_run_from(): [riscv.cpu0] Running batch of scans [0, 3)
Debug: 1597 1016 batch.c:255 log_batch(): 40b w 0032100b @17 -> + 00000000 @00; 4i
Debug: 1598 1016 batch.c:199 log_dmi_decoded(): write: command=0x32100b {control=0x32100b}
Debug: 1599 1016 batch.c:255 log_batch(): 40b r 00000000 @16 -> + 0032100b @17; 0i
Debug: 1600 1016 batch.c:255 log_batch(): 40b - 00000000 @00 -> + 02000002 @16; 0i
Debug: 1601 1016 batch.c:199 log_dmi_decoded(): read: abstractcs=0x2000002 {datacount=2 progbufsize=2}
Debug: 1602 1016 riscv-013.c:680 abstract_cmd_batch_check_and_clear_cmderr(): [riscv.cpu0] abstractcs=0x2000002 {datacount=2 relaxedpriv=full_checks busy=ready progbufsize=2 cmderr=none}
Debug: 1603 1016 batch.c:291 riscv_batch_run_from(): [riscv.cpu0] Running batch of scans [0, 3)
Debug: 1604 1017 batch.c:255 log_batch(): 40b r 00000000 @04 -> + 00000000 @00; 0i
Debug: 1605 1017 batch.c:255 log_batch(): 40b r 00000000 @05 -> + 0000000a @04; 0i
Debug: 1606 1017 batch.c:199 log_dmi_decoded(): read: 
Debug: 1607 1017 batch.c:255 log_batch(): 40b - 00000000 @00 -> + 00000000 @05; 0i
Debug: 1608 1017 batch.c:199 log_dmi_decoded(): read: 
Debug: 1609 1017 riscv-013.c:1652 register_read_direct(): [riscv.cpu0] a1 = 0xa
Debug: 1610 1017 riscv_reg.c:988 riscv_reg_get(): [riscv.cpu0] Read a1: 0xa
Debug: 1611 1017 riscv-013_reg.c:40 riscv013_reg_get(): [riscv.cpu0] Read 0x000000000000000a from a1 (valid=1).
Debug: 1612 1017 riscv_reg.c:979 riscv_reg_get(): [riscv.cpu0] Reading a2 from target
Debug: 1613 1017 riscv-013.c:5109 riscv013_get_register(): [riscv.cpu0] reading register a2
Debug: 1614 1017 riscv-013.c:1633 register_read_direct(): [riscv.cpu0] Reading a2
Debug: 1615 1017 riscv-013.c:745 riscv013_execute_abstract_command(): [riscv.cpu0] access register=0x32100c {regno=0x100c write=arg0 transfer=enabled postexec=disabled aarpostincrement=disabled aarsize=64bit}
Debug: 1616 1017 batch.c:291 riscv_batch_run_from(): [riscv.cpu0] Running batch of scans [0, 3)
Debug: 1617 1017 batch.c:255 log_batch(): 40b w 0032100c @17 -> + 00000000 @00; 4i
Debug: 1618 1017 batch.c:199 log_dmi_decoded(): write: command=0x32100c {control=0x32100c}
Debug: 1619 1017 batch.c:255 log_batch(): 40b r 00000000 @16 -> + 0032100c @17; 0i
Debug: 1620 1017 batch.c:255 log_batch(): 40b - 00000000 @00 -> + 02000002 @16; 0i
Debug: 1621 1017 batch.c:199 log_dmi_decoded(): read: abstractcs=0x2000002 {datacount=2 progbufsize=2}
Debug: 1622 1017 riscv-013.c:680 abstract_cmd_batch_check_and_clear_cmderr(): [riscv.cpu0] abstractcs=0x2000002 {datacount=2 relaxedpriv=full_checks busy=ready progbufsize=2 cmderr=none}
Debug: 1623 1017 batch.c:291 riscv_batch_run_from(): [riscv.cpu0] Running batch of scans [0, 3)
Debug: 1624 1018 batch.c:255 log_batch(): 40b r 00000000 @04 -> + 00000000 @00; 0i
Debug: 1625 1018 batch.c:255 log_batch(): 40b r 00000000 @05 -> + 0000000b @04; 0i
Debug: 1626 1018 batch.c:199 log_dmi_decoded(): read: 
Debug: 1627 1018 batch.c:255 log_batch(): 40b - 00000000 @00 -> + 00000000 @05; 0i
Debug: 1628 1018 batch.c:199 log_dmi_decoded(): read: 
Debug: 1629 1018 riscv-013.c:1652 register_read_direct(): [riscv.cpu0] a2 = 0xb
Debug: 1630 1018 riscv_reg.c:988 riscv_reg_get(): [riscv.cpu0] Read a2: 0xb
Debug: 1631 1018 riscv-013_reg.c:40 riscv013_reg_get(): [riscv.cpu0] Read 0x000000000000000b from a2 (valid=1).
Debug: 1632 1018 riscv_reg.c:979 riscv_reg_get(): [riscv.cpu0] Reading a3 from target
Debug: 1633 1018 riscv-013.c:5109 riscv013_get_register(): [riscv.cpu0] reading register a3
Debug: 1634 1018 riscv-013.c:1633 register_read_direct(): [riscv.cpu0] Reading a3
Debug: 1635 1018 riscv-013.c:745 riscv013_execute_abstract_command(): [riscv.cpu0] access register=0x32100d {regno=0x100d write=arg0 transfer=enabled postexec=disabled aarpostincrement=disabled aarsize=64bit}
Debug: 1636 1018 batch.c:291 riscv_batch_run_from(): [riscv.cpu0] Running batch of scans [0, 3)
Debug: 1637 1018 batch.c:255 log_batch(): 40b w 0032100d @17 -> + 00000000 @00; 4i
Debug: 1638 1018 batch.c:199 log_dmi_decoded(): write: command=0x32100d {control=0x32100d}
Debug: 1639 1018 batch.c:255 log_batch(): 40b r 00000000 @16 -> + 0032100d @17; 0i
Debug: 1640 1018 batch.c:255 log_batch(): 40b - 00000000 @00 -> + 02000002 @16; 0i
Debug: 1641 1018 batch.c:199 log_dmi_decoded(): read: abstractcs=0x2000002 {datacount=2 progbufsize=2}
Debug: 1642 1018 riscv-013.c:680 abstract_cmd_batch_check_and_clear_cmderr(): [riscv.cpu0] abstractcs=0x2000002 {datacount=2 relaxedpriv=full_checks busy=ready progbufsize=2 cmderr=none}
Debug: 1643 1018 batch.c:291 riscv_batch_run_from(): [riscv.cpu0] Running batch of scans [0, 3)
Debug: 1644 1019 batch.c:255 log_batch(): 40b r 00000000 @04 -> + 00000000 @00; 0i
Debug: 1645 1019 batch.c:255 log_batch(): 40b r 00000000 @05 -> + 0000000c @04; 0i
Debug: 1646 1019 batch.c:199 log_dmi_decoded(): read: 
Debug: 1647 1019 batch.c:255 log_batch(): 40b - 00000000 @00 -> + 00000000 @05; 0i
Debug: 1648 1019 batch.c:199 log_dmi_decoded(): read: 
Debug: 1649 1019 riscv-013.c:1652 register_read_direct(): [riscv.cpu0] a3 = 0xc
Debug: 1650 1019 riscv_reg.c:988 riscv_reg_get(): [riscv.cpu0] Read a3: 0xc
Debug: 1651 1019 riscv-013_reg.c:40 riscv013_reg_get(): [riscv.cpu0] Read 0x000000000000000c from a3 (valid=1).
Debug: 1652 1019 riscv_reg.c:979 riscv_reg_get(): [riscv.cpu0] Reading a4 from target
Debug: 1653 1019 riscv-013.c:5109 riscv013_get_register(): [riscv.cpu0] reading register a4
Debug: 1654 1019 riscv-013.c:1633 register_read_direct(): [riscv.cpu0] Reading a4
Debug: 1655 1019 riscv-013.c:745 riscv013_execute_abstract_command(): [riscv.cpu0] access register=0x32100e {regno=0x100e write=arg0 transfer=enabled postexec=disabled aarpostincrement=disabled aarsize=64bit}
Debug: 1656 1019 batch.c:291 riscv_batch_run_from(): [riscv.cpu0] Running batch of scans [0, 3)
Debug: 1657 1019 batch.c:255 log_batch(): 40b w 0032100e @17 -> + 00000000 @00; 4i
Debug: 1658 1019 batch.c:199 log_dmi_decoded(): write: command=0x32100e {control=0x32100e}
Debug: 1659 1019 batch.c:255 log_batch(): 40b r 00000000 @16 -> + 0032100e @17; 0i
Debug: 1660 1019 batch.c:255 log_batch(): 40b - 00000000 @00 -> + 02000002 @16; 0i
Debug: 1661 1019 batch.c:199 log_dmi_decoded(): read: abstractcs=0x2000002 {datacount=2 progbufsize=2}
Debug: 1662 1019 riscv-013.c:680 abstract_cmd_batch_check_and_clear_cmderr(): [riscv.cpu0] abstractcs=0x2000002 {datacount=2 relaxedpriv=full_checks busy=ready progbufsize=2 cmderr=none}
Debug: 1663 1019 batch.c:291 riscv_batch_run_from(): [riscv.cpu0] Running batch of scans [0, 3)
Debug: 1664 1020 batch.c:255 log_batch(): 40b r 00000000 @04 -> + 00000000 @00; 0i
Debug: 1665 1020 batch.c:255 log_batch(): 40b r 00000000 @05 -> + 0000000d @04; 0i
Debug: 1666 1020 batch.c:199 log_dmi_decoded(): read: 
Debug: 1667 1020 batch.c:255 log_batch(): 40b - 00000000 @00 -> + 00000000 @05; 0i
Debug: 1668 1020 batch.c:199 log_dmi_decoded(): read: 
Debug: 1669 1020 riscv-013.c:1652 register_read_direct(): [riscv.cpu0] a4 = 0xd
Debug: 1670 1020 riscv_reg.c:988 riscv_reg_get(): [riscv.cpu0] Read a4: 0xd
Debug: 1671 1020 riscv-013_reg.c:40 riscv013_reg_get(): [riscv.cpu0] Read 0x000000000000000d from a4 (valid=1).
Debug: 1672 1020 riscv_reg.c:979 riscv_reg_get(): [riscv.cpu0] Reading a5 from target
Debug: 1673 1020 riscv-013.c:5109 riscv013_get_register(): [riscv.cpu0] reading register a5
Debug: 1674 1020 riscv-013.c:1633 register_read_direct(): [riscv.cpu0] Reading a5
Debug: 1675 1020 riscv-013.c:745 riscv013_execute_abstract_command(): [riscv.cpu0] access register=0x32100f {regno=0x100f write=arg0 transfer=enabled postexec=disabled aarpostincrement=disabled aarsize=64bit}
Debug: 1676 1020 batch.c:291 riscv_batch_run_from(): [riscv.cpu0] Running batch of scans [0, 3)
Debug: 1677 1020 batch.c:255 log_batch(): 40b w 0032100f @17 -> + 00000000 @00; 4i
Debug: 1678 1020 batch.c:199 log_dmi_decoded(): write: command=0x32100f {control=0x32100f}
Debug: 1679 1020 batch.c:255 log_batch(): 40b r 00000000 @16 -> + 0032100f @17; 0i
Debug: 1680 1020 batch.c:255 log_batch(): 40b - 00000000 @00 -> + 02000002 @16; 0i
Debug: 1681 1020 batch.c:199 log_dmi_decoded(): read: abstractcs=0x2000002 {datacount=2 progbufsize=2}
Debug: 1682 1020 riscv-013.c:680 abstract_cmd_batch_check_and_clear_cmderr(): [riscv.cpu0] abstractcs=0x2000002 {datacount=2 relaxedpriv=full_checks busy=ready progbufsize=2 cmderr=none}
Debug: 1683 1020 batch.c:291 riscv_batch_run_from(): [riscv.cpu0] Running batch of scans [0, 3)
Debug: 1684 1020 batch.c:255 log_batch(): 40b r 00000000 @04 -> + 00000000 @00; 0i
Debug: 1685 1020 batch.c:255 log_batch(): 40b r 00000000 @05 -> + 0000000e @04; 0i
Debug: 1686 1020 batch.c:199 log_dmi_decoded(): read: 
Debug: 1687 1021 batch.c:255 log_batch(): 40b - 00000000 @00 -> + 00000000 @05; 0i
Debug: 1688 1021 batch.c:199 log_dmi_decoded(): read: 
Debug: 1689 1021 riscv-013.c:1652 register_read_direct(): [riscv.cpu0] a5 = 0xe
Debug: 1690 1021 riscv_reg.c:988 riscv_reg_get(): [riscv.cpu0] Read a5: 0xe
Debug: 1691 1021 riscv-013_reg.c:40 riscv013_reg_get(): [riscv.cpu0] Read 0x000000000000000e from a5 (valid=1).
Debug: 1692 1021 riscv_reg.c:979 riscv_reg_get(): [riscv.cpu0] Reading a6 from target
Debug: 1693 1021 riscv-013.c:5109 riscv013_get_register(): [riscv.cpu0] reading register a6
Debug: 1694 1021 riscv-013.c:1633 register_read_direct(): [riscv.cpu0] Reading a6
Debug: 1695 1021 riscv-013.c:745 riscv013_execute_abstract_command(): [riscv.cpu0] access register=0x321010 {regno=0x1010 write=arg0 transfer=enabled postexec=disabled aarpostincrement=disabled aarsize=64bit}
Debug: 1696 1021 batch.c:291 riscv_batch_run_from(): [riscv.cpu0] Running batch of scans [0, 3)
Debug: 1697 1021 batch.c:255 log_batch(): 40b w 00321010 @17 -> + 00000000 @00; 4i
Debug: 1698 1021 batch.c:199 log_dmi_decoded(): write: command=0x321010 {control=0x321010}
Debug: 1699 1021 batch.c:255 log_batch(): 40b r 00000000 @16 -> + 00321010 @17; 0i
Debug: 1700 1021 batch.c:255 log_batch(): 40b - 00000000 @00 -> + 02000002 @16; 0i
Debug: 1701 1021 batch.c:199 log_dmi_decoded(): read: abstractcs=0x2000002 {datacount=2 progbufsize=2}
Debug: 1702 1021 riscv-013.c:680 abstract_cmd_batch_check_and_clear_cmderr(): [riscv.cpu0] abstractcs=0x2000002 {datacount=2 relaxedpriv=full_checks busy=ready progbufsize=2 cmderr=none}
Debug: 1703 1021 batch.c:291 riscv_batch_run_from(): [riscv.cpu0] Running batch of scans [0, 3)
Debug: 1704 1021 batch.c:255 log_batch(): 40b r 00000000 @04 -> + 00000000 @00; 0i
Debug: 1705 1021 batch.c:255 log_batch(): 40b r 00000000 @05 -> + 0000000f @04; 0i
Debug: 1706 1021 batch.c:199 log_dmi_decoded(): read: 
Debug: 1707 1021 batch.c:255 log_batch(): 40b - 00000000 @00 -> + 00000000 @05; 0i
Debug: 1708 1021 batch.c:199 log_dmi_decoded(): read: 
Debug: 1709 1022 riscv-013.c:1652 register_read_direct(): [riscv.cpu0] a6 = 0xf
Debug: 1710 1022 riscv_reg.c:988 riscv_reg_get(): [riscv.cpu0] Read a6: 0xf
Debug: 1711 1022 riscv-013_reg.c:40 riscv013_reg_get(): [riscv.cpu0] Read 0x000000000000000f from a6 (valid=1).
Debug: 1712 1022 riscv_reg.c:979 riscv_reg_get(): [riscv.cpu0] Reading a7 from target
Debug: 1713 1022 riscv-013.c:5109 riscv013_get_register(): [riscv.cpu0] reading register a7
Debug: 1714 1022 riscv-013.c:1633 register_read_direct(): [riscv.cpu0] Reading a7
Debug: 1715 1022 riscv-013.c:745 riscv013_execute_abstract_command(): [riscv.cpu0] access register=0x321011 {regno=0x1011 write=arg0 transfer=enabled postexec=disabled aarpostincrement=disabled aarsize=64bit}
Debug: 1716 1022 batch.c:291 riscv_batch_run_from(): [riscv.cpu0] Running batch of scans [0, 3)
Debug: 1717 1022 batch.c:255 log_batch(): 40b w 00321011 @17 -> + 00000000 @00; 4i
Debug: 1718 1022 batch.c:199 log_dmi_decoded(): write: command=0x321011 {control=0x321011}
Debug: 1719 1022 batch.c:255 log_batch(): 40b r 00000000 @16 -> + 00321011 @17; 0i
Debug: 1720 1022 batch.c:255 log_batch(): 40b - 00000000 @00 -> + 02000002 @16; 0i
Debug: 1721 1022 batch.c:199 log_dmi_decoded(): read: abstractcs=0x2000002 {datacount=2 progbufsize=2}
Debug: 1722 1022 riscv-013.c:680 abstract_cmd_batch_check_and_clear_cmderr(): [riscv.cpu0] abstractcs=0x2000002 {datacount=2 relaxedpriv=full_checks busy=ready progbufsize=2 cmderr=none}
Debug: 1723 1022 batch.c:291 riscv_batch_run_from(): [riscv.cpu0] Running batch of scans [0, 3)
Debug: 1724 1022 batch.c:255 log_batch(): 40b r 00000000 @04 -> + 00000000 @00; 0i
Debug: 1725 1022 batch.c:255 log_batch(): 40b r 00000000 @05 -> + 00000010 @04; 0i
Debug: 1726 1022 batch.c:199 log_dmi_decoded(): read: 
Debug: 1727 1022 batch.c:255 log_batch(): 40b - 00000000 @00 -> + 00000000 @05; 0i
Debug: 1728 1022 batch.c:199 log_dmi_decoded(): read: 
Debug: 1729 1022 riscv-013.c:1652 register_read_direct(): [riscv.cpu0] a7 = 0x10
Debug: 1730 1022 riscv_reg.c:988 riscv_reg_get(): [riscv.cpu0] Read a7: 0x10
Debug: 1731 1022 riscv-013_reg.c:40 riscv013_reg_get(): [riscv.cpu0] Read 0x0000000000000010 from a7 (valid=1).
Debug: 1732 1022 riscv_reg.c:979 riscv_reg_get(): [riscv.cpu0] Reading s2 from target
Debug: 1733 1022 riscv-013.c:5109 riscv013_get_register(): [riscv.cpu0] reading register s2
Debug: 1734 1022 riscv-013.c:1633 register_read_direct(): [riscv.cpu0] Reading s2
Debug: 1735 1022 riscv-013.c:745 riscv013_execute_abstract_command(): [riscv.cpu0] access register=0x321012 {regno=0x1012 write=arg0 transfer=enabled postexec=disabled aarpostincrement=disabled aarsize=64bit}
Debug: 1736 1022 batch.c:291 riscv_batch_run_from(): [riscv.cpu0] Running batch of scans [0, 3)
Debug: 1737 1023 batch.c:255 log_batch(): 40b w 00321012 @17 -> + 00000000 @00; 4i
Debug: 1738 1023 batch.c:199 log_dmi_decoded(): write: command=0x321012 {control=0x321012}
Debug: 1739 1023 batch.c:255 log_batch(): 40b r 00000000 @16 -> + 00321012 @17; 0i
Debug: 1740 1023 batch.c:255 log_batch(): 40b - 00000000 @00 -> + 02000002 @16; 0i
Debug: 1741 1023 batch.c:199 log_dmi_decoded(): read: abstractcs=0x2000002 {datacount=2 progbufsize=2}
Debug: 1742 1023 riscv-013.c:680 abstract_cmd_batch_check_and_clear_cmderr(): [riscv.cpu0] abstractcs=0x2000002 {datacount=2 relaxedpriv=full_checks busy=ready progbufsize=2 cmderr=none}
Debug: 1743 1023 batch.c:291 riscv_batch_run_from(): [riscv.cpu0] Running batch of scans [0, 3)
Debug: 1744 1023 batch.c:255 log_batch(): 40b r 00000000 @04 -> + 00000000 @00; 0i
Debug: 1745 1023 batch.c:255 log_batch(): 40b r 00000000 @05 -> + 00000011 @04; 0i
Debug: 1746 1023 batch.c:199 log_dmi_decoded(): read: 
Debug: 1747 1023 batch.c:255 log_batch(): 40b - 00000000 @00 -> + 00000000 @05; 0i
Debug: 1748 1023 batch.c:199 log_dmi_decoded(): read: 
Debug: 1749 1023 riscv-013.c:1652 register_read_direct(): [riscv.cpu0] s2 = 0x11
Debug: 1750 1023 riscv_reg.c:988 riscv_reg_get(): [riscv.cpu0] Read s2: 0x11
Debug: 1751 1023 riscv-013_reg.c:40 riscv013_reg_get(): [riscv.cpu0] Read 0x0000000000000011 from s2 (valid=1).
Debug: 1752 1023 riscv_reg.c:979 riscv_reg_get(): [riscv.cpu0] Reading s3 from target
Debug: 1753 1023 riscv-013.c:5109 riscv013_get_register(): [riscv.cpu0] reading register s3
Debug: 1754 1023 riscv-013.c:1633 register_read_direct(): [riscv.cpu0] Reading s3
Debug: 1755 1023 riscv-013.c:745 riscv013_execute_abstract_command(): [riscv.cpu0] access register=0x321013 {regno=0x1013 write=arg0 transfer=enabled postexec=disabled aarpostincrement=disabled aarsize=64bit}
Debug: 1756 1023 batch.c:291 riscv_batch_run_from(): [riscv.cpu0] Running batch of scans [0, 3)
Debug: 1757 1024 batch.c:255 log_batch(): 40b w 00321013 @17 -> + 00000000 @00; 4i
Debug: 1758 1024 batch.c:199 log_dmi_decoded(): write: command=0x321013 {control=0x321013}
Debug: 1759 1024 batch.c:255 log_batch(): 40b r 00000000 @16 -> + 00321013 @17; 0i
Debug: 1760 1024 batch.c:255 log_batch(): 40b - 00000000 @00 -> + 02000002 @16; 0i
Debug: 1761 1024 batch.c:199 log_dmi_decoded(): read: abstractcs=0x2000002 {datacount=2 progbufsize=2}
Debug: 1762 1024 riscv-013.c:680 abstract_cmd_batch_check_and_clear_cmderr(): [riscv.cpu0] abstractcs=0x2000002 {datacount=2 relaxedpriv=full_checks busy=ready progbufsize=2 cmderr=none}
Debug: 1763 1024 batch.c:291 riscv_batch_run_from(): [riscv.cpu0] Running batch of scans [0, 3)
Debug: 1764 1024 batch.c:255 log_batch(): 40b r 00000000 @04 -> + 00000000 @00; 0i
Debug: 1765 1024 batch.c:255 log_batch(): 40b r 00000000 @05 -> + 00000012 @04; 0i
Debug: 1766 1024 batch.c:199 log_dmi_decoded(): read: 
Debug: 1767 1024 batch.c:255 log_batch(): 40b - 00000000 @00 -> + 00000000 @05; 0i
Debug: 1768 1024 batch.c:199 log_dmi_decoded(): read: 
Debug: 1769 1024 riscv-013.c:1652 register_read_direct(): [riscv.cpu0] s3 = 0x12
Debug: 1770 1024 riscv_reg.c:988 riscv_reg_get(): [riscv.cpu0] Read s3: 0x12
Debug: 1771 1024 riscv-013_reg.c:40 riscv013_reg_get(): [riscv.cpu0] Read 0x0000000000000012 from s3 (valid=1).
Debug: 1772 1024 riscv_reg.c:979 riscv_reg_get(): [riscv.cpu0] Reading s4 from target
Debug: 1773 1024 riscv-013.c:5109 riscv013_get_register(): [riscv.cpu0] reading register s4
Debug: 1774 1024 riscv-013.c:1633 register_read_direct(): [riscv.cpu0] Reading s4
Debug: 1775 1024 riscv-013.c:745 riscv013_execute_abstract_command(): [riscv.cpu0] access register=0x321014 {regno=0x1014 write=arg0 transfer=enabled postexec=disabled aarpostincrement=disabled aarsize=64bit}
Debug: 1776 1024 batch.c:291 riscv_batch_run_from(): [riscv.cpu0] Running batch of scans [0, 3)
Debug: 1777 1025 batch.c:255 log_batch(): 40b w 00321014 @17 -> + 00000000 @00; 4i
Debug: 1778 1025 batch.c:199 log_dmi_decoded(): write: command=0x321014 {control=0x321014}
Debug: 1779 1025 batch.c:255 log_batch(): 40b r 00000000 @16 -> + 00321014 @17; 0i
Debug: 1780 1025 batch.c:255 log_batch(): 40b - 00000000 @00 -> + 02000002 @16; 0i
Debug: 1781 1025 batch.c:199 log_dmi_decoded(): read: abstractcs=0x2000002 {datacount=2 progbufsize=2}
Debug: 1782 1025 riscv-013.c:680 abstract_cmd_batch_check_and_clear_cmderr(): [riscv.cpu0] abstractcs=0x2000002 {datacount=2 relaxedpriv=full_checks busy=ready progbufsize=2 cmderr=none}
Debug: 1783 1025 batch.c:291 riscv_batch_run_from(): [riscv.cpu0] Running batch of scans [0, 3)
Debug: 1784 1025 batch.c:255 log_batch(): 40b r 00000000 @04 -> + 00000000 @00; 0i
Debug: 1785 1025 batch.c:255 log_batch(): 40b r 00000000 @05 -> + 00000013 @04; 0i
Debug: 1786 1025 batch.c:199 log_dmi_decoded(): read: 
Debug: 1787 1025 batch.c:255 log_batch(): 40b - 00000000 @00 -> + 00000000 @05; 0i
Debug: 1788 1025 batch.c:199 log_dmi_decoded(): read: 
Debug: 1789 1025 riscv-013.c:1652 register_read_direct(): [riscv.cpu0] s4 = 0x13
Debug: 1790 1025 riscv_reg.c:988 riscv_reg_get(): [riscv.cpu0] Read s4: 0x13
Debug: 1791 1025 riscv-013_reg.c:40 riscv013_reg_get(): [riscv.cpu0] Read 0x0000000000000013 from s4 (valid=1).
Debug: 1792 1025 riscv_reg.c:979 riscv_reg_get(): [riscv.cpu0] Reading s5 from target
Debug: 1793 1025 riscv-013.c:5109 riscv013_get_register(): [riscv.cpu0] reading register s5
Debug: 1794 1025 riscv-013.c:1633 register_read_direct(): [riscv.cpu0] Reading s5
Debug: 1795 1025 riscv-013.c:745 riscv013_execute_abstract_command(): [riscv.cpu0] access register=0x321015 {regno=0x1015 write=arg0 transfer=enabled postexec=disabled aarpostincrement=disabled aarsize=64bit}
Debug: 1796 1025 batch.c:291 riscv_batch_run_from(): [riscv.cpu0] Running batch of scans [0, 3)
Debug: 1797 1026 batch.c:255 log_batch(): 40b w 00321015 @17 -> + 00000000 @00; 4i
Debug: 1798 1026 batch.c:199 log_dmi_decoded(): write: command=0x321015 {control=0x321015}
Debug: 1799 1026 batch.c:255 log_batch(): 40b r 00000000 @16 -> + 00321015 @17; 0i
Debug: 1800 1026 batch.c:255 log_batch(): 40b - 00000000 @00 -> + 02000002 @16; 0i
Debug: 1801 1026 batch.c:199 log_dmi_decoded(): read: abstractcs=0x2000002 {datacount=2 progbufsize=2}
Debug: 1802 1026 riscv-013.c:680 abstract_cmd_batch_check_and_clear_cmderr(): [riscv.cpu0] abstractcs=0x2000002 {datacount=2 relaxedpriv=full_checks busy=ready progbufsize=2 cmderr=none}
Debug: 1803 1026 batch.c:291 riscv_batch_run_from(): [riscv.cpu0] Running batch of scans [0, 3)
Debug: 1804 1026 batch.c:255 log_batch(): 40b r 00000000 @04 -> + 00000000 @00; 0i
Debug: 1805 1026 batch.c:255 log_batch(): 40b r 00000000 @05 -> + 00000014 @04; 0i
Debug: 1806 1026 batch.c:199 log_dmi_decoded(): read: 
Debug: 1807 1026 batch.c:255 log_batch(): 40b - 00000000 @00 -> + 00000000 @05; 0i
Debug: 1808 1026 batch.c:199 log_dmi_decoded(): read: 
Debug: 1809 1026 riscv-013.c:1652 register_read_direct(): [riscv.cpu0] s5 = 0x14
Debug: 1810 1026 riscv_reg.c:988 riscv_reg_get(): [riscv.cpu0] Read s5: 0x14
Debug: 1811 1026 riscv-013_reg.c:40 riscv013_reg_get(): [riscv.cpu0] Read 0x0000000000000014 from s5 (valid=1).
Debug: 1812 1026 riscv_reg.c:979 riscv_reg_get(): [riscv.cpu0] Reading s6 from target
Debug: 1813 1026 riscv-013.c:5109 riscv013_get_register(): [riscv.cpu0] reading register s6
Debug: 1814 1026 riscv-013.c:1633 register_read_direct(): [riscv.cpu0] Reading s6
Debug: 1815 1026 riscv-013.c:745 riscv013_execute_abstract_command(): [riscv.cpu0] access register=0x321016 {regno=0x1016 write=arg0 transfer=enabled postexec=disabled aarpostincrement=disabled aarsize=64bit}
Debug: 1816 1026 batch.c:291 riscv_batch_run_from(): [riscv.cpu0] Running batch of scans [0, 3)
Debug: 1817 1026 batch.c:255 log_batch(): 40b w 00321016 @17 -> + 00000000 @00; 4i
Debug: 1818 1026 batch.c:199 log_dmi_decoded(): write: command=0x321016 {control=0x321016}
Debug: 1819 1026 batch.c:255 log_batch(): 40b r 00000000 @16 -> + 00321016 @17; 0i
Debug: 1820 1027 batch.c:255 log_batch(): 40b - 00000000 @00 -> + 02000002 @16; 0i
Debug: 1821 1027 batch.c:199 log_dmi_decoded(): read: abstractcs=0x2000002 {datacount=2 progbufsize=2}
Debug: 1822 1027 riscv-013.c:680 abstract_cmd_batch_check_and_clear_cmderr(): [riscv.cpu0] abstractcs=0x2000002 {datacount=2 relaxedpriv=full_checks busy=ready progbufsize=2 cmderr=none}
Debug: 1823 1027 batch.c:291 riscv_batch_run_from(): [riscv.cpu0] Running batch of scans [0, 3)
Debug: 1824 1027 batch.c:255 log_batch(): 40b r 00000000 @04 -> + 00000000 @00; 0i
Debug: 1825 1027 batch.c:255 log_batch(): 40b r 00000000 @05 -> + 00000015 @04; 0i
Debug: 1826 1027 batch.c:199 log_dmi_decoded(): read: 
Debug: 1827 1027 batch.c:255 log_batch(): 40b - 00000000 @00 -> + 00000000 @05; 0i
Debug: 1828 1027 batch.c:199 log_dmi_decoded(): read: 
Debug: 1829 1027 riscv-013.c:1652 register_read_direct(): [riscv.cpu0] s6 = 0x15
Debug: 1830 1027 riscv_reg.c:988 riscv_reg_get(): [riscv.cpu0] Read s6: 0x15
Debug: 1831 1027 riscv-013_reg.c:40 riscv013_reg_get(): [riscv.cpu0] Read 0x0000000000000015 from s6 (valid=1).
Debug: 1832 1027 riscv_reg.c:979 riscv_reg_get(): [riscv.cpu0] Reading s7 from target
Debug: 1833 1027 riscv-013.c:5109 riscv013_get_register(): [riscv.cpu0] reading register s7
Debug: 1834 1027 riscv-013.c:1633 register_read_direct(): [riscv.cpu0] Reading s7
Debug: 1835 1027 riscv-013.c:745 riscv013_execute_abstract_command(): [riscv.cpu0] access register=0x321017 {regno=0x1017 write=arg0 transfer=enabled postexec=disabled aarpostincrement=disabled aarsize=64bit}
Debug: 1836 1027 batch.c:291 riscv_batch_run_from(): [riscv.cpu0] Running batch of scans [0, 3)
Debug: 1837 1027 batch.c:255 log_batch(): 40b w 00321017 @17 -> + 00000000 @00; 4i
Debug: 1838 1027 batch.c:199 log_dmi_decoded(): write: command=0x321017 {control=0x321017}
Debug: 1839 1027 batch.c:255 log_batch(): 40b r 00000000 @16 -> + 00321017 @17; 0i
Debug: 1840 1027 batch.c:255 log_batch(): 40b - 00000000 @00 -> + 02000002 @16; 0i
Debug: 1841 1027 batch.c:199 log_dmi_decoded(): read: abstractcs=0x2000002 {datacount=2 progbufsize=2}
Debug: 1842 1027 riscv-013.c:680 abstract_cmd_batch_check_and_clear_cmderr(): [riscv.cpu0] abstractcs=0x2000002 {datacount=2 relaxedpriv=full_checks busy=ready progbufsize=2 cmderr=none}
Debug: 1843 1028 batch.c:291 riscv_batch_run_from(): [riscv.cpu0] Running batch of scans [0, 3)
Debug: 1844 1028 batch.c:255 log_batch(): 40b r 00000000 @04 -> + 00000000 @00; 0i
Debug: 1845 1028 batch.c:255 log_batch(): 40b r 00000000 @05 -> + 00000016 @04; 0i
Debug: 1846 1028 batch.c:199 log_dmi_decoded(): read: 
Debug: 1847 1028 batch.c:255 log_batch(): 40b - 00000000 @00 -> + 00000000 @05; 0i
Debug: 1848 1028 batch.c:199 log_dmi_decoded(): read: 
Debug: 1849 1028 riscv-013.c:1652 register_read_direct(): [riscv.cpu0] s7 = 0x16
Debug: 1850 1028 riscv_reg.c:988 riscv_reg_get(): [riscv.cpu0] Read s7: 0x16
Debug: 1851 1028 riscv-013_reg.c:40 riscv013_reg_get(): [riscv.cpu0] Read 0x0000000000000016 from s7 (valid=1).
Debug: 1852 1028 riscv_reg.c:979 riscv_reg_get(): [riscv.cpu0] Reading s8 from target
Debug: 1853 1028 riscv-013.c:5109 riscv013_get_register(): [riscv.cpu0] reading register s8
Debug: 1854 1028 riscv-013.c:1633 register_read_direct(): [riscv.cpu0] Reading s8
Debug: 1855 1028 riscv-013.c:745 riscv013_execute_abstract_command(): [riscv.cpu0] access register=0x321018 {regno=0x1018 write=arg0 transfer=enabled postexec=disabled aarpostincrement=disabled aarsize=64bit}
Debug: 1856 1028 batch.c:291 riscv_batch_run_from(): [riscv.cpu0] Running batch of scans [0, 3)
Debug: 1857 1028 batch.c:255 log_batch(): 40b w 00321018 @17 -> + 00000000 @00; 4i
Debug: 1858 1028 batch.c:199 log_dmi_decoded(): write: command=0x321018 {control=0x321018}
Debug: 1859 1028 batch.c:255 log_batch(): 40b r 00000000 @16 -> + 00321018 @17; 0i
Debug: 1860 1028 batch.c:255 log_batch(): 40b - 00000000 @00 -> + 02000002 @16; 0i
Debug: 1861 1028 batch.c:199 log_dmi_decoded(): read: abstractcs=0x2000002 {datacount=2 progbufsize=2}
Debug: 1862 1028 riscv-013.c:680 abstract_cmd_batch_check_and_clear_cmderr(): [riscv.cpu0] abstractcs=0x2000002 {datacount=2 relaxedpriv=full_checks busy=ready progbufsize=2 cmderr=none}
Debug: 1863 1028 batch.c:291 riscv_batch_run_from(): [riscv.cpu0] Running batch of scans [0, 3)
Debug: 1864 1029 batch.c:255 log_batch(): 40b r 00000000 @04 -> + 00000000 @00; 0i
Debug: 1865 1029 batch.c:255 log_batch(): 40b r 00000000 @05 -> + 00000017 @04; 0i
Debug: 1866 1029 batch.c:199 log_dmi_decoded(): read: 
Debug: 1867 1029 batch.c:255 log_batch(): 40b - 00000000 @00 -> + 00000000 @05; 0i
Debug: 1868 1029 batch.c:199 log_dmi_decoded(): read: 
Debug: 1869 1029 riscv-013.c:1652 register_read_direct(): [riscv.cpu0] s8 = 0x17
Debug: 1870 1029 riscv_reg.c:988 riscv_reg_get(): [riscv.cpu0] Read s8: 0x17
Debug: 1871 1029 riscv-013_reg.c:40 riscv013_reg_get(): [riscv.cpu0] Read 0x0000000000000017 from s8 (valid=1).
Debug: 1872 1029 riscv_reg.c:979 riscv_reg_get(): [riscv.cpu0] Reading s9 from target
Debug: 1873 1029 riscv-013.c:5109 riscv013_get_register(): [riscv.cpu0] reading register s9
Debug: 1874 1029 riscv-013.c:1633 register_read_direct(): [riscv.cpu0] Reading s9
Debug: 1875 1029 riscv-013.c:745 riscv013_execute_abstract_command(): [riscv.cpu0] access register=0x321019 {regno=0x1019 write=arg0 transfer=enabled postexec=disabled aarpostincrement=disabled aarsize=64bit}
Debug: 1876 1029 batch.c:291 riscv_batch_run_from(): [riscv.cpu0] Running batch of scans [0, 3)
Debug: 1877 1029 batch.c:255 log_batch(): 40b w 00321019 @17 -> + 00000000 @00; 4i
Debug: 1878 1029 batch.c:199 log_dmi_decoded(): write: command=0x321019 {control=0x321019}
Debug: 1879 1029 batch.c:255 log_batch(): 40b r 00000000 @16 -> + 00321019 @17; 0i
Debug: 1880 1029 batch.c:255 log_batch(): 40b - 00000000 @00 -> + 02000002 @16; 0i
Debug: 1881 1029 batch.c:199 log_dmi_decoded(): read: abstractcs=0x2000002 {datacount=2 progbufsize=2}
Debug: 1882 1029 riscv-013.c:680 abstract_cmd_batch_check_and_clear_cmderr(): [riscv.cpu0] abstractcs=0x2000002 {datacount=2 relaxedpriv=full_checks busy=ready progbufsize=2 cmderr=none}
Debug: 1883 1029 batch.c:291 riscv_batch_run_from(): [riscv.cpu0] Running batch of scans [0, 3)
Debug: 1884 1030 batch.c:255 log_batch(): 40b r 00000000 @04 -> + 00000000 @00; 0i
Debug: 1885 1030 batch.c:255 log_batch(): 40b r 00000000 @05 -> + 00000018 @04; 0i
Debug: 1886 1030 batch.c:199 log_dmi_decoded(): read: 
Debug: 1887 1030 batch.c:255 log_batch(): 40b - 00000000 @00 -> + 00000000 @05; 0i
Debug: 1888 1030 batch.c:199 log_dmi_decoded(): read: 
Debug: 1889 1030 riscv-013.c:1652 register_read_direct(): [riscv.cpu0] s9 = 0x18
Debug: 1890 1030 riscv_reg.c:988 riscv_reg_get(): [riscv.cpu0] Read s9: 0x18
Debug: 1891 1030 riscv-013_reg.c:40 riscv013_reg_get(): [riscv.cpu0] Read 0x0000000000000018 from s9 (valid=1).
Debug: 1892 1030 riscv_reg.c:979 riscv_reg_get(): [riscv.cpu0] Reading s10 from target
Debug: 1893 1030 riscv-013.c:5109 riscv013_get_register(): [riscv.cpu0] reading register s10
Debug: 1894 1030 riscv-013.c:1633 register_read_direct(): [riscv.cpu0] Reading s10
Debug: 1895 1030 riscv-013.c:745 riscv013_execute_abstract_command(): [riscv.cpu0] access register=0x32101a {regno=0x101a write=arg0 transfer=enabled postexec=disabled aarpostincrement=disabled aarsize=64bit}
Debug: 1896 1030 batch.c:291 riscv_batch_run_from(): [riscv.cpu0] Running batch of scans [0, 3)
Debug: 1897 1030 batch.c:255 log_batch(): 40b w 0032101a @17 -> + 00000000 @00; 4i
Debug: 1898 1030 batch.c:199 log_dmi_decoded(): write: command=0x32101a {control=0x32101a}
Debug: 1899 1030 batch.c:255 log_batch(): 40b r 00000000 @16 -> + 0032101a @17; 0i
Debug: 1900 1030 batch.c:255 log_batch(): 40b - 00000000 @00 -> + 02000002 @16; 0i
Debug: 1901 1030 batch.c:199 log_dmi_decoded(): read: abstractcs=0x2000002 {datacount=2 progbufsize=2}
Debug: 1902 1030 riscv-013.c:680 abstract_cmd_batch_check_and_clear_cmderr(): [riscv.cpu0] abstractcs=0x2000002 {datacount=2 relaxedpriv=full_checks busy=ready progbufsize=2 cmderr=none}
Debug: 1903 1030 batch.c:291 riscv_batch_run_from(): [riscv.cpu0] Running batch of scans [0, 3)
Debug: 1904 1031 batch.c:255 log_batch(): 40b r 00000000 @04 -> + 00000000 @00; 0i
Debug: 1905 1031 batch.c:255 log_batch(): 40b r 00000000 @05 -> + 00000019 @04; 0i
Debug: 1906 1031 batch.c:199 log_dmi_decoded(): read: 
Debug: 1907 1031 batch.c:255 log_batch(): 40b - 00000000 @00 -> + 00000000 @05; 0i
Debug: 1908 1031 batch.c:199 log_dmi_decoded(): read: 
Debug: 1909 1031 riscv-013.c:1652 register_read_direct(): [riscv.cpu0] s10 = 0x19
Debug: 1910 1031 riscv_reg.c:988 riscv_reg_get(): [riscv.cpu0] Read s10: 0x19
Debug: 1911 1031 riscv-013_reg.c:40 riscv013_reg_get(): [riscv.cpu0] Read 0x0000000000000019 from s10 (valid=1).
Debug: 1912 1031 riscv_reg.c:979 riscv_reg_get(): [riscv.cpu0] Reading s11 from target
Debug: 1913 1031 riscv-013.c:5109 riscv013_get_register(): [riscv.cpu0] reading register s11
Debug: 1914 1031 riscv-013.c:1633 register_read_direct(): [riscv.cpu0] Reading s11
Debug: 1915 1031 riscv-013.c:745 riscv013_execute_abstract_command(): [riscv.cpu0] access register=0x32101b {regno=0x101b write=arg0 transfer=enabled postexec=disabled aarpostincrement=disabled aarsize=64bit}
Debug: 1916 1031 batch.c:291 riscv_batch_run_from(): [riscv.cpu0] Running batch of scans [0, 3)
Debug: 1917 1031 batch.c:255 log_batch(): 40b w 0032101b @17 -> + 00000000 @00; 4i
Debug: 1918 1031 batch.c:199 log_dmi_decoded(): write: command=0x32101b {control=0x32101b}
Debug: 1919 1031 batch.c:255 log_batch(): 40b r 00000000 @16 -> + 0032101b @17; 0i
Debug: 1920 1031 batch.c:255 log_batch(): 40b - 00000000 @00 -> + 02000002 @16; 0i
Debug: 1921 1031 batch.c:199 log_dmi_decoded(): read: abstractcs=0x2000002 {datacount=2 progbufsize=2}
Debug: 1922 1031 riscv-013.c:680 abstract_cmd_batch_check_and_clear_cmderr(): [riscv.cpu0] abstractcs=0x2000002 {datacount=2 relaxedpriv=full_checks busy=ready progbufsize=2 cmderr=none}
Debug: 1923 1031 batch.c:291 riscv_batch_run_from(): [riscv.cpu0] Running batch of scans [0, 3)
Debug: 1924 1032 batch.c:255 log_batch(): 40b r 00000000 @04 -> + 00000000 @00; 0i
Debug: 1925 1032 batch.c:255 log_batch(): 40b r 00000000 @05 -> + 0000001a @04; 0i
Debug: 1926 1032 batch.c:199 log_dmi_decoded(): read: 
Debug: 1927 1032 batch.c:255 log_batch(): 40b - 00000000 @00 -> + 00000000 @05; 0i
Debug: 1928 1032 batch.c:199 log_dmi_decoded(): read: 
Debug: 1929 1032 riscv-013.c:1652 register_read_direct(): [riscv.cpu0] s11 = 0x1a
Debug: 1930 1032 riscv_reg.c:988 riscv_reg_get(): [riscv.cpu0] Read s11: 0x1a
Debug: 1931 1032 riscv-013_reg.c:40 riscv013_reg_get(): [riscv.cpu0] Read 0x000000000000001a from s11 (valid=1).
Debug: 1932 1032 riscv_reg.c:979 riscv_reg_get(): [riscv.cpu0] Reading t3 from target
Debug: 1933 1032 riscv-013.c:5109 riscv013_get_register(): [riscv.cpu0] reading register t3
Debug: 1934 1032 riscv-013.c:1633 register_read_direct(): [riscv.cpu0] Reading t3
Debug: 1935 1032 riscv-013.c:745 riscv013_execute_abstract_command(): [riscv.cpu0] access register=0x32101c {regno=0x101c write=arg0 transfer=enabled postexec=disabled aarpostincrement=disabled aarsize=64bit}
Debug: 1936 1032 batch.c:291 riscv_batch_run_from(): [riscv.cpu0] Running batch of scans [0, 3)
Debug: 1937 1033 batch.c:255 log_batch(): 40b w 0032101c @17 -> + 00000000 @00; 4i
Debug: 1938 1033 batch.c:199 log_dmi_decoded(): write: command=0x32101c {control=0x32101c}
Debug: 1939 1033 batch.c:255 log_batch(): 40b r 00000000 @16 -> + 0032101c @17; 0i
Debug: 1940 1033 batch.c:255 log_batch(): 40b - 00000000 @00 -> + 02000002 @16; 0i
Debug: 1941 1033 batch.c:199 log_dmi_decoded(): read: abstractcs=0x2000002 {datacount=2 progbufsize=2}
Debug: 1942 1033 riscv-013.c:680 abstract_cmd_batch_check_and_clear_cmderr(): [riscv.cpu0] abstractcs=0x2000002 {datacount=2 relaxedpriv=full_checks busy=ready progbufsize=2 cmderr=none}
Debug: 1943 1033 batch.c:291 riscv_batch_run_from(): [riscv.cpu0] Running batch of scans [0, 3)
Debug: 1944 1034 batch.c:255 log_batch(): 40b r 00000000 @04 -> + 00000000 @00; 0i
Debug: 1945 1034 batch.c:255 log_batch(): 40b r 00000000 @05 -> + 0000001b @04; 0i
Debug: 1946 1034 batch.c:199 log_dmi_decoded(): read: 
Debug: 1947 1034 batch.c:255 log_batch(): 40b - 00000000 @00 -> + 00000000 @05; 0i
Debug: 1948 1034 batch.c:199 log_dmi_decoded(): read: 
Debug: 1949 1034 riscv-013.c:1652 register_read_direct(): [riscv.cpu0] t3 = 0x1b
Debug: 1950 1034 riscv_reg.c:988 riscv_reg_get(): [riscv.cpu0] Read t3: 0x1b
Debug: 1951 1034 riscv-013_reg.c:40 riscv013_reg_get(): [riscv.cpu0] Read 0x000000000000001b from t3 (valid=1).
Debug: 1952 1034 riscv_reg.c:979 riscv_reg_get(): [riscv.cpu0] Reading t4 from target
Debug: 1953 1034 riscv-013.c:5109 riscv013_get_register(): [riscv.cpu0] reading register t4
Debug: 1954 1034 riscv-013.c:1633 register_read_direct(): [riscv.cpu0] Reading t4
Debug: 1955 1034 riscv-013.c:745 riscv013_execute_abstract_command(): [riscv.cpu0] access register=0x32101d {regno=0x101d write=arg0 transfer=enabled postexec=disabled aarpostincrement=disabled aarsize=64bit}
Debug: 1956 1034 batch.c:291 riscv_batch_run_from(): [riscv.cpu0] Running batch of scans [0, 3)
Debug: 1957 1035 batch.c:255 log_batch(): 40b w 0032101d @17 -> + 00000000 @00; 4i
Debug: 1958 1035 batch.c:199 log_dmi_decoded(): write: command=0x32101d {control=0x32101d}
Debug: 1959 1035 batch.c:255 log_batch(): 40b r 00000000 @16 -> + 0032101d @17; 0i
Debug: 1960 1035 batch.c:255 log_batch(): 40b - 00000000 @00 -> + 02000002 @16; 0i
Debug: 1961 1035 batch.c:199 log_dmi_decoded(): read: abstractcs=0x2000002 {datacount=2 progbufsize=2}
Debug: 1962 1035 riscv-013.c:680 abstract_cmd_batch_check_and_clear_cmderr(): [riscv.cpu0] abstractcs=0x2000002 {datacount=2 relaxedpriv=full_checks busy=ready progbufsize=2 cmderr=none}
Debug: 1963 1035 batch.c:291 riscv_batch_run_from(): [riscv.cpu0] Running batch of scans [0, 3)
Debug: 1964 1036 batch.c:255 log_batch(): 40b r 00000000 @04 -> + 00000000 @00; 0i
Debug: 1965 1036 batch.c:255 log_batch(): 40b r 00000000 @05 -> + 0000001c @04; 0i
Debug: 1966 1036 batch.c:199 log_dmi_decoded(): read: 
Debug: 1967 1036 batch.c:255 log_batch(): 40b - 00000000 @00 -> + 00000000 @05; 0i
Debug: 1968 1036 batch.c:199 log_dmi_decoded(): read: 
Debug: 1969 1036 riscv-013.c:1652 register_read_direct(): [riscv.cpu0] t4 = 0x1c
Debug: 1970 1036 riscv_reg.c:988 riscv_reg_get(): [riscv.cpu0] Read t4: 0x1c
Debug: 1971 1036 riscv-013_reg.c:40 riscv013_reg_get(): [riscv.cpu0] Read 0x000000000000001c from t4 (valid=1).
Debug: 1972 1036 riscv_reg.c:979 riscv_reg_get(): [riscv.cpu0] Reading t5 from target
Debug: 1973 1036 riscv-013.c:5109 riscv013_get_register(): [riscv.cpu0] reading register t5
Debug: 1974 1036 riscv-013.c:1633 register_read_direct(): [riscv.cpu0] Reading t5
Debug: 1975 1036 riscv-013.c:745 riscv013_execute_abstract_command(): [riscv.cpu0] access register=0x32101e {regno=0x101e write=arg0 transfer=enabled postexec=disabled aarpostincrement=disabled aarsize=64bit}
Debug: 1976 1036 batch.c:291 riscv_batch_run_from(): [riscv.cpu0] Running batch of scans [0, 3)
Debug: 1977 1036 batch.c:255 log_batch(): 40b w 0032101e @17 -> + 00000000 @00; 4i
Debug: 1978 1036 batch.c:199 log_dmi_decoded(): write: command=0x32101e {control=0x32101e}
Debug: 1979 1036 batch.c:255 log_batch(): 40b r 00000000 @16 -> + 0032101e @17; 0i
Debug: 1980 1036 batch.c:255 log_batch(): 40b - 00000000 @00 -> + 02000002 @16; 0i
Debug: 1981 1036 batch.c:199 log_dmi_decoded(): read: abstractcs=0x2000002 {datacount=2 progbufsize=2}
Debug: 1982 1036 riscv-013.c:680 abstract_cmd_batch_check_and_clear_cmderr(): [riscv.cpu0] abstractcs=0x2000002 {datacount=2 relaxedpriv=full_checks busy=ready progbufsize=2 cmderr=none}
Debug: 1983 1036 batch.c:291 riscv_batch_run_from(): [riscv.cpu0] Running batch of scans [0, 3)
Debug: 1984 1036 batch.c:255 log_batch(): 40b r 00000000 @04 -> + 00000000 @00; 0i
Debug: 1985 1036 batch.c:255 log_batch(): 40b r 00000000 @05 -> + 0000001d @04; 0i
Debug: 1986 1036 batch.c:199 log_dmi_decoded(): read: 
Debug: 1987 1036 batch.c:255 log_batch(): 40b - 00000000 @00 -> + 00000000 @05; 0i
Debug: 1988 1036 batch.c:199 log_dmi_decoded(): read: 
Debug: 1989 1036 riscv-013.c:1652 register_read_direct(): [riscv.cpu0] t5 = 0x1d
Debug: 1990 1036 riscv_reg.c:988 riscv_reg_get(): [riscv.cpu0] Read t5: 0x1d
Debug: 1991 1036 riscv-013_reg.c:40 riscv013_reg_get(): [riscv.cpu0] Read 0x000000000000001d from t5 (valid=1).
Debug: 1992 1036 riscv_reg.c:979 riscv_reg_get(): [riscv.cpu0] Reading t6 from target
Debug: 1993 1036 riscv-013.c:5109 riscv013_get_register(): [riscv.cpu0] reading register t6
Debug: 1994 1036 riscv-013.c:1633 register_read_direct(): [riscv.cpu0] Reading t6
Debug: 1995 1036 riscv-013.c:745 riscv013_execute_abstract_command(): [riscv.cpu0] access register=0x32101f {regno=0x101f write=arg0 transfer=enabled postexec=disabled aarpostincrement=disabled aarsize=64bit}
Debug: 1996 1036 batch.c:291 riscv_batch_run_from(): [riscv.cpu0] Running batch of scans [0, 3)
Debug: 1997 1037 batch.c:255 log_batch(): 40b w 0032101f @17 -> + 00000000 @00; 4i
Debug: 1998 1037 batch.c:199 log_dmi_decoded(): write: command=0x32101f {control=0x32101f}
Debug: 1999 1037 batch.c:255 log_batch(): 40b r 00000000 @16 -> + 0032101f @17; 0i
Debug: 2000 1037 batch.c:255 log_batch(): 40b - 00000000 @00 -> + 02000002 @16; 0i
Debug: 2001 1037 batch.c:199 log_dmi_decoded(): read: abstractcs=0x2000002 {datacount=2 progbufsize=2}
Debug: 2002 1037 riscv-013.c:680 abstract_cmd_batch_check_and_clear_cmderr(): [riscv.cpu0] abstractcs=0x2000002 {datacount=2 relaxedpriv=full_checks busy=ready progbufsize=2 cmderr=none}
Debug: 2003 1037 batch.c:291 riscv_batch_run_from(): [riscv.cpu0] Running batch of scans [0, 3)
Debug: 2004 1037 batch.c:255 log_batch(): 40b r 00000000 @04 -> + 00000000 @00; 0i
Debug: 2005 1037 batch.c:255 log_batch(): 40b r 00000000 @05 -> + 0000001e @04; 0i
Debug: 2006 1037 batch.c:199 log_dmi_decoded(): read: 
Debug: 2007 1037 batch.c:255 log_batch(): 40b - 00000000 @00 -> + 00000000 @05; 0i
Debug: 2008 1037 batch.c:199 log_dmi_decoded(): read: 
Debug: 2009 1037 riscv-013.c:1652 register_read_direct(): [riscv.cpu0] t6 = 0x1e
Debug: 2010 1037 riscv_reg.c:988 riscv_reg_get(): [riscv.cpu0] Read t6: 0x1e
Debug: 2011 1037 riscv-013_reg.c:40 riscv013_reg_get(): [riscv.cpu0] Read 0x000000000000001e from t6 (valid=1).
Debug: 2012 1037 riscv_reg.c:979 riscv_reg_get(): [riscv.cpu0] Reading dpc from target
Debug: 2013 1037 riscv-013.c:5109 riscv013_get_register(): [riscv.cpu0] reading register dpc
Debug: 2014 1037 riscv-013.c:1633 register_read_direct(): [riscv.cpu0] Reading dpc
Debug: 2015 1037 riscv-013.c:745 riscv013_execute_abstract_command(): [riscv.cpu0] access register=0x3207b1 {regno=0x7b1 write=arg0 transfer=enabled postexec=disabled aarpostincrement=disabled aarsize=64bit}
Debug: 2016 1037 batch.c:291 riscv_batch_run_from(): [riscv.cpu0] Running batch of scans [0, 3)
Debug: 2017 1038 batch.c:255 log_batch(): 40b w 003207b1 @17 -> + 00000000 @00; 4i
Debug: 2018 1038 batch.c:199 log_dmi_decoded(): write: command=0x3207b1 {control=0x3207b1}
Debug: 2019 1038 batch.c:255 log_batch(): 40b r 00000000 @16 -> + 003207b1 @17; 0i
Debug: 2020 1038 batch.c:255 log_batch(): 40b - 00000000 @00 -> + 02000002 @16; 0i
Debug: 2021 1038 batch.c:199 log_dmi_decoded(): read: abstractcs=0x2000002 {datacount=2 progbufsize=2}
Debug: 2022 1038 riscv-013.c:680 abstract_cmd_batch_check_and_clear_cmderr(): [riscv.cpu0] abstractcs=0x2000002 {datacount=2 relaxedpriv=full_checks busy=ready progbufsize=2 cmderr=none}
Debug: 2023 1038 batch.c:291 riscv_batch_run_from(): [riscv.cpu0] Running batch of scans [0, 3)
Debug: 2024 1038 batch.c:255 log_batch(): 40b r 00000000 @04 -> + 00000000 @00; 0i
Debug: 2025 1038 batch.c:255 log_batch(): 40b r 00000000 @05 -> + 123408dc @04; 0i
Debug: 2026 1038 batch.c:199 log_dmi_decoded(): read: 
Debug: 2027 1038 batch.c:255 log_batch(): 40b - 00000000 @00 -> + 00000012 @05; 0i
Debug: 2028 1038 batch.c:199 log_dmi_decoded(): read: 
Debug: 2029 1038 riscv-013.c:1652 register_read_direct(): [riscv.cpu0] dpc = 0x12123408dc
Debug: 2030 1038 riscv_reg.c:988 riscv_reg_get(): [riscv.cpu0] Read dpc: 0x12123408dc
Debug: 2031 1038 riscv-013_reg.c:40 riscv013_reg_get(): [riscv.cpu0] Read 0x00000012123408dc from pc (valid=0).
Debug: 2032 1038 riscv_reg.c:974 riscv_reg_get(): [riscv.cpu0] Read dpc: 0x12123408dc (cached)
Debug: 2033 1038 riscv-013_reg.c:40 riscv013_reg_get(): [riscv.cpu0] Read 0x00000012123408dc from pc (valid=0).
Debug: 2034 1038 gdb_server.c:425 gdb_log_outgoing_packet(): [riscv.cpu0] {1} sending packet: $000000000000000000000000000000000100000000000000020000000000000003000000000000000400000000000000050000000000000006000000000000000700000000000000080000000000000009000000000000000a000000000000000b000000000000000c000000000000000d000000000000000e000000000000000f0000000000000010000000000000001100000000000000120000000000000013000000000000001400000000000000150000000000000016000000000000001700000000000000180000000000000019000000000000001a000000000000001b000000000000001c000000000000001d000000000000001e00000000000000dc08341212000000#19
Debug: 2035 1038 riscv.c:4022 riscv_openocd_poll(): [riscv.cpu0] Polling all harts.
Debug: 2036 1038 riscv.c:3845 riscv_poll_hart(): [riscv.cpu0] polling, target->state=2
Debug: 2037 1038 batch.c:291 riscv_batch_run_from(): [riscv.cpu0] Running batch of scans [0, 2)
Debug: 2038 1039 batch.c:255 log_batch(): 40b r 00000000 @11 -> + 00000000 @00; 0i
Debug: 2039 1039 batch.c:255 log_batch(): 40b - 00000000 @00 -> + 00430382 @11; 0i
Debug: 2040 1039 batch.c:199 log_dmi_decoded(): read: dmstatus=0x430382 {version=0_13 anyresumeack=1 allresumeack=1 impebreak=1 authenticated=true anyhalted=1 allhalted=1}
Debug: 2041 1039 riscv_reg.c:781 riscv_reg_flush_all(): [riscv.cpu0] Flushing register cache
Debug: 2042 1039 riscv_reg.c:798 riscv_reg_flush_all(): [riscv.cpu0] Flush of register cache completed
Debug: 2043 1039 riscv.c:4081 riscv_openocd_poll(): [riscv.cpu0] should_remain_halted=0, should_resume=0
Debug: 2044 1039 riscv.c:4022 riscv_openocd_poll(): [riscv.cpu1] Polling all harts.
Debug: 2045 1039 riscv.c:3845 riscv_poll_hart(): [riscv.cpu1] polling, target->state=2
Debug: 2046 1039 batch.c:291 riscv_batch_run_from(): [riscv.cpu1] Running batch of scans [0, 2)
Debug: 2047 1039 batch.c:255 log_batch(): 40b w 00010001 @10 -> + 00000000 @00; 0i
Debug: 2048 1039 batch.c:199 log_dmi_decoded(): write: dmcontrol=0x10001 {dmactive=active hartsello=1}
Debug: 2049 1039 batch.c:255 log_batch(): 40b - 00000000 @00 -> + 00010001 @10; 0i
Debug: 2050 1039 batch.c:291 riscv_batch_run_from(): [riscv.cpu1] Running batch of scans [0, 2)
Debug: 2051 1039 batch.c:255 log_batch(): 40b r 00000000 @11 -> + 00000000 @00; 0i
Debug: 2052 1039 batch.c:255 log_batch(): 40b - 00000000 @00 -> + 00430382 @11; 0i
Debug: 2053 1039 batch.c:199 log_dmi_decoded(): read: dmstatus=0x430382 {version=0_13 anyresumeack=1 allresumeack=1 impebreak=1 authenticated=true anyhalted=1 allhalted=1}
Debug: 2054 1039 riscv_reg.c:781 riscv_reg_flush_all(): [riscv.cpu1] Flushing register cache
Debug: 2055 1039 riscv_reg.c:798 riscv_reg_flush_all(): [riscv.cpu1] Flush of register cache completed
Debug: 2056 1039 riscv.c:4081 riscv_openocd_poll(): [riscv.cpu1] should_remain_halted=0, should_resume=0
Debug: 2057 1039 gdb_server.c:408 gdb_log_incoming_packet(): [riscv.cpu0] {1} received packet: qXfer:threads:read::0,1000
Debug: 2058 1039 gdb_server.c:422 gdb_log_outgoing_packet(): [riscv.cpu0] {1} sending packet: $<binary-data-44-bytes>#02
Debug: 2059 1091 gdb_server.c:408 gdb_log_incoming_packet(): [riscv.cpu0] {1} received packet: qRcmd,72697363762072657365745f64656c61797320313237
Debug: 2060 1091 riscv.c:4022 riscv_openocd_poll(): [riscv.cpu0] Polling all harts.
Debug: 2061 1091 riscv.c:3845 riscv_poll_hart(): [riscv.cpu0] polling, target->state=2
Debug: 2062 1091 batch.c:291 riscv_batch_run_from(): [riscv.cpu0] Running batch of scans [0, 2)
Debug: 2063 1091 batch.c:255 log_batch(): 40b w 00000001 @10 -> + 00000000 @00; 0i
Debug: 2064 1092 batch.c:199 log_dmi_decoded(): write: dmcontrol=1 {dmactive=active}
Debug: 2065 1092 batch.c:255 log_batch(): 40b - 00000000 @00 -> + 00000001 @10; 0i
Debug: 2066 1092 batch.c:291 riscv_batch_run_from(): [riscv.cpu0] Running batch of scans [0, 2)
Debug: 2067 1092 batch.c:255 log_batch(): 40b r 00000000 @11 -> + 00000000 @00; 0i
Debug: 2068 1092 batch.c:255 log_batch(): 40b - 00000000 @00 -> + 00430382 @11; 0i
Debug: 2069 1092 batch.c:199 log_dmi_decoded(): read: dmstatus=0x430382 {version=0_13 anyresumeack=1 allresumeack=1 impebreak=1 authenticated=true anyhalted=1 allhalted=1}
Debug: 2070 1092 riscv_reg.c:781 riscv_reg_flush_all(): [riscv.cpu0] Flushing register cache
Debug: 2071 1092 riscv_reg.c:798 riscv_reg_flush_all(): [riscv.cpu0] Flush of register cache completed
Debug: 2072 1092 riscv.c:4081 riscv_openocd_poll(): [riscv.cpu0] should_remain_halted=0, should_resume=0
Debug: 2073 1092 riscv.c:4022 riscv_openocd_poll(): [riscv.cpu1] Polling all harts.
Debug: 2074 1092 riscv.c:3845 riscv_poll_hart(): [riscv.cpu1] polling, target->state=2
Debug: 2075 1092 batch.c:291 riscv_batch_run_from(): [riscv.cpu1] Running batch of scans [0, 2)
Debug: 2076 1092 batch.c:255 log_batch(): 40b w 00010001 @10 -> + 00000000 @00; 0i
Debug: 2077 1092 batch.c:199 log_dmi_decoded(): write: dmcontrol=0x10001 {dmactive=active hartsello=1}
Debug: 2078 1092 batch.c:255 log_batch(): 40b - 00000000 @00 -> + 00010001 @10; 0i
Debug: 2079 1092 batch.c:291 riscv_batch_run_from(): [riscv.cpu1] Running batch of scans [0, 2)
Debug: 2080 1093 batch.c:255 log_batch(): 40b r 00000000 @11 -> + 00000000 @00; 0i
Debug: 2081 1093 batch.c:255 log_batch(): 40b - 00000000 @00 -> + 00430382 @11; 0i
Debug: 2082 1093 batch.c:199 log_dmi_decoded(): read: dmstatus=0x430382 {version=0_13 anyresumeack=1 allresumeack=1 impebreak=1 authenticated=true anyhalted=1 allhalted=1}
Debug: 2083 1093 riscv_reg.c:781 riscv_reg_flush_all(): [riscv.cpu1] Flushing register cache
Debug: 2084 1093 riscv_reg.c:798 riscv_reg_flush_all(): [riscv.cpu1] Flush of register cache completed
Debug: 2085 1093 riscv.c:4081 riscv_openocd_poll(): [riscv.cpu1] should_remain_halted=0, should_resume=0
Debug: 2086 1093 command.c:82 script_debug(): command - riscv reset_delays 127
Debug: 2087 1093 gdb_server.c:425 gdb_log_outgoing_packet(): [riscv.cpu0] {1} sending packet: $OK#9a
Debug: 2088 1148 gdb_server.c:408 gdb_log_incoming_packet(): [riscv.cpu0] {1} received packet: qSymbol::
Debug: 2089 1148 gdb_server.c:425 gdb_log_outgoing_packet(): [riscv.cpu0] {1} sending packet: $OK#9a
Debug: 2090 1148 gdb_server.c:408 gdb_log_incoming_packet(): [riscv.cpu0] {1} received packet: qSymbol::
Debug: 2091 1148 gdb_server.c:425 gdb_log_outgoing_packet(): [riscv.cpu0] {1} sending packet: $OK#9a
Debug: 2092 1148 gdb_server.c:408 gdb_log_incoming_packet(): [riscv.cpu0] {1} received packet: g
Debug: 2093 1149 riscv.c:3513 riscv_get_gdb_reg_list_internal(): [riscv.cpu0] reg_class=1, read=1
Debug: 2094 1149 riscv_reg.c:974 riscv_reg_get(): [riscv.cpu0] Read dpc: 0x12123408dc (cached)
Debug: 2095 1149 riscv-013_reg.c:40 riscv013_reg_get(): [riscv.cpu0] Read 0x00000012123408dc from pc (valid=0).
Debug: 2096 1149 riscv_reg.c:974 riscv_reg_get(): [riscv.cpu0] Read dpc: 0x12123408dc (cached)
Debug: 2097 1149 riscv-013_reg.c:40 riscv013_reg_get(): [riscv.cpu0] Read 0x00000012123408dc from pc (valid=0).
Debug: 2098 1149 gdb_server.c:425 gdb_log_outgoing_packet(): [riscv.cpu0] {1} sending packet: $000000000000000000000000000000000100000000000000020000000000000003000000000000000400000000000000050000000000000006000000000000000700000000000000080000000000000009000000000000000a000000000000000b000000000000000c000000000000000d000000000000000e000000000000000f0000000000000010000000000000001100000000000000120000000000000013000000000000001400000000000000150000000000000016000000000000001700000000000000180000000000000019000000000000001a000000000000001b000000000000001c000000000000001d000000000000001e00000000000000dc08341212000000#19
Debug: 2099 1193 riscv.c:4022 riscv_openocd_poll(): [riscv.cpu0] Polling all harts.
Debug: 2100 1195 riscv.c:3845 riscv_poll_hart(): [riscv.cpu0] polling, target->state=2
Debug: 2101 1195 batch.c:291 riscv_batch_run_from(): [riscv.cpu0] Running batch of scans [0, 2)
Debug: 2102 1195 batch.c:255 log_batch(): 40b w 00000001 @10 -> + 00000000 @00; 0i
Debug: 2103 1195 batch.c:199 log_dmi_decoded(): write: dmcontrol=1 {dmactive=active}
Debug: 2104 1195 batch.c:255 log_batch(): 40b - 00000000 @00 -> + 00000001 @10; 0i
Debug: 2105 1195 batch.c:291 riscv_batch_run_from(): [riscv.cpu0] Running batch of scans [0, 2)
Debug: 2106 1196 batch.c:255 log_batch(): 40b r 00000000 @11 -> + 00000000 @00; 0i
Debug: 2107 1196 batch.c:255 log_batch(): 40b - 00000000 @00 -> + 00430382 @11; 0i
Debug: 2108 1196 batch.c:199 log_dmi_decoded(): read: dmstatus=0x430382 {version=0_13 anyresumeack=1 allresumeack=1 impebreak=1 authenticated=true anyhalted=1 allhalted=1}
Debug: 2109 1196 riscv_reg.c:781 riscv_reg_flush_all(): [riscv.cpu0] Flushing register cache
Debug: 2110 1196 riscv_reg.c:798 riscv_reg_flush_all(): [riscv.cpu0] Flush of register cache completed
Debug: 2111 1196 riscv.c:4081 riscv_openocd_poll(): [riscv.cpu0] should_remain_halted=0, should_resume=0
Debug: 2112 1196 riscv.c:4022 riscv_openocd_poll(): [riscv.cpu1] Polling all harts.
Debug: 2113 1196 riscv.c:3845 riscv_poll_hart(): [riscv.cpu1] polling, target->state=2
Debug: 2114 1196 batch.c:291 riscv_batch_run_from(): [riscv.cpu1] Running batch of scans [0, 2)
Debug: 2115 1196 batch.c:255 log_batch(): 40b w 00010001 @10 -> + 00000000 @00; 0i
Debug: 2116 1196 batch.c:199 log_dmi_decoded(): write: dmcontrol=0x10001 {dmactive=active hartsello=1}
Debug: 2117 1196 batch.c:255 log_batch(): 40b - 00000000 @00 -> + 00010001 @10; 0i
Debug: 2118 1196 batch.c:291 riscv_batch_run_from(): [riscv.cpu1] Running batch of scans [0, 2)
Debug: 2119 1196 batch.c:255 log_batch(): 40b r 00000000 @11 -> + 00000000 @00; 0i
Debug: 2120 1196 batch.c:255 log_batch(): 40b - 00000000 @00 -> + 00430382 @11; 0i
Debug: 2121 1196 batch.c:199 log_dmi_decoded(): read: dmstatus=0x430382 {version=0_13 anyresumeack=1 allresumeack=1 impebreak=1 authenticated=true anyhalted=1 allhalted=1}
Debug: 2122 1196 riscv_reg.c:781 riscv_reg_flush_all(): [riscv.cpu1] Flushing register cache
Debug: 2123 1196 riscv_reg.c:798 riscv_reg_flush_all(): [riscv.cpu1] Flush of register cache completed
Debug: 2124 1196 riscv.c:4081 riscv_openocd_poll(): [riscv.cpu1] should_remain_halted=0, should_resume=0
Debug: 2125 1201 gdb_server.c:408 gdb_log_incoming_packet(): [riscv.cpu0] {1} received packet: qRcmd,72697363762072657365745f64656c61797320313831
Debug: 2126 1201 command.c:82 script_debug(): command - riscv reset_delays 181
Debug: 2127 1201 gdb_server.c:425 gdb_log_outgoing_packet(): [riscv.cpu0] {1} sending packet: $OK#9a
Debug: 2128 1253 gdb_server.c:408 gdb_log_incoming_packet(): [riscv.cpu0] {1} received packet: qXfer:threads:read::0,1000
Debug: 2129 1253 gdb_server.c:422 gdb_log_outgoing_packet(): [riscv.cpu0] {1} sending packet: $<binary-data-44-bytes>#02
Debug: 2130 1254 gdb_server.c:408 gdb_log_incoming_packet(): [riscv.cpu0] {1} received packet: mffffffffffffff80,40
Debug: 2131 1254 gdb_server.c:1568 gdb_read_memory_packet(): addr: 0xffffffffffffff80, len: 0x00000040
Debug: 2132 1254 target.c:2472 target_read_buffer(): reading buffer of 64 byte at 0xffffffffffffff80
Debug: 2133 1254 riscv_reg.c:979 riscv_reg_get(): [riscv.cpu0] Reading priv from target
Debug: 2134 1254 riscv_reg.c:979 riscv_reg_get(): [riscv.cpu0] Reading dcsr from target
Debug: 2135 1254 riscv-013.c:5109 riscv013_get_register(): [riscv.cpu0] reading register dcsr
Debug: 2136 1254 batch.c:291 riscv_batch_run_from(): [riscv.cpu0] Running batch of scans [0, 2)
Debug: 2137 1255 batch.c:255 log_batch(): 40b w 00000001 @10 -> + 00000000 @00; 0i
Debug: 2138 1255 batch.c:199 log_dmi_decoded(): write: dmcontrol=1 {dmactive=active}
Debug: 2139 1255 batch.c:255 log_batch(): 40b - 00000000 @00 -> + 00000001 @10; 0i
Debug: 2140 1255 riscv-013.c:1633 register_read_direct(): [riscv.cpu0] Reading dcsr
Debug: 2141 1255 riscv-013.c:745 riscv013_execute_abstract_command(): [riscv.cpu0] access register=0x2207b0 {regno=0x7b0 write=arg0 transfer=enabled postexec=disabled aarpostincrement=disabled aarsize=32bit}
Debug: 2142 1255 batch.c:291 riscv_batch_run_from(): [riscv.cpu0] Running batch of scans [0, 3)
Debug: 2143 1256 batch.c:255 log_batch(): 40b w 002207b0 @17 -> + 00000000 @00; 4i
Debug: 2144 1256 batch.c:199 log_dmi_decoded(): write: command=0x2207b0 {control=0x2207b0}
Debug: 2145 1256 batch.c:255 log_batch(): 40b r 00000000 @16 -> + 002207b0 @17; 0i
Debug: 2146 1256 batch.c:255 log_batch(): 40b - 00000000 @00 -> + 02000002 @16; 0i
Debug: 2147 1256 batch.c:199 log_dmi_decoded(): read: abstractcs=0x2000002 {datacount=2 progbufsize=2}
Debug: 2148 1256 riscv-013.c:680 abstract_cmd_batch_check_and_clear_cmderr(): [riscv.cpu0] abstractcs=0x2000002 {datacount=2 relaxedpriv=full_checks busy=ready progbufsize=2 cmderr=none}
Debug: 2149 1256 batch.c:291 riscv_batch_run_from(): [riscv.cpu0] Running batch of scans [0, 2)
Debug: 2150 1256 batch.c:255 log_batch(): 40b r 00000000 @04 -> + 00000000 @00; 0i
Debug: 2151 1256 batch.c:255 log_batch(): 40b - 00000000 @00 -> + 4000b0c3 @04; 0i
Debug: 2152 1256 batch.c:199 log_dmi_decoded(): read: 
Debug: 2153 1256 riscv-013.c:1652 register_read_direct(): [riscv.cpu0] dcsr = 0x4000b0c3
Debug: 2154 1256 riscv_reg.c:988 riscv_reg_get(): [riscv.cpu0] Read dcsr: 0x4000b0c3
Debug: 2155 1256 riscv_reg.c:988 riscv_reg_get(): [riscv.cpu0] Read priv: 0x3
Debug: 2156 1256 riscv_reg.c:979 riscv_reg_get(): [riscv.cpu0] Reading priv from target
Debug: 2157 1256 riscv_reg.c:974 riscv_reg_get(): [riscv.cpu0] Read dcsr: 0x4000b0c3 (cached)
Debug: 2158 1256 riscv_reg.c:988 riscv_reg_get(): [riscv.cpu0] Read priv: 0x3
Debug: 2159 1256 riscv_reg.c:979 riscv_reg_get(): [riscv.cpu0] Reading mstatus from target
Debug: 2160 1256 riscv-013.c:5109 riscv013_get_register(): [riscv.cpu0] reading register mstatus
Debug: 2161 1256 riscv-013.c:1633 register_read_direct(): [riscv.cpu0] Reading mstatus
Debug: 2162 1256 riscv-013.c:745 riscv013_execute_abstract_command(): [riscv.cpu0] access register=0x320300 {regno=0x300 write=arg0 transfer=enabled postexec=disabled aarpostincrement=disabled aarsize=64bit}
Debug: 2163 1256 batch.c:291 riscv_batch_run_from(): [riscv.cpu0] Running batch of scans [0, 3)
Debug: 2164 1256 batch.c:255 log_batch(): 40b w 00320300 @17 -> + 00000000 @00; 4i
Debug: 2165 1257 batch.c:199 log_dmi_decoded(): write: command=0x320300 {control=0x320300}
Debug: 2166 1257 batch.c:255 log_batch(): 40b r 00000000 @16 -> + 00320300 @17; 0i
Debug: 2167 1257 batch.c:255 log_batch(): 40b - 00000000 @00 -> + 02000002 @16; 0i
Debug: 2168 1257 batch.c:199 log_dmi_decoded(): read: abstractcs=0x2000002 {datacount=2 progbufsize=2}
Debug: 2169 1257 riscv-013.c:680 abstract_cmd_batch_check_and_clear_cmderr(): [riscv.cpu0] abstractcs=0x2000002 {datacount=2 relaxedpriv=full_checks busy=ready progbufsize=2 cmderr=none}
Debug: 2170 1257 batch.c:291 riscv_batch_run_from(): [riscv.cpu0] Running batch of scans [0, 3)
Debug: 2171 1257 batch.c:255 log_batch(): 40b r 00000000 @04 -> + 00000000 @00; 0i
Debug: 2172 1257 batch.c:255 log_batch(): 40b r 00000000 @05 -> + 00000000 @04; 0i
Debug: 2173 1257 batch.c:199 log_dmi_decoded(): read: 
Debug: 2174 1257 batch.c:255 log_batch(): 40b - 00000000 @00 -> + 0000000a @05; 0i
Debug: 2175 1257 batch.c:199 log_dmi_decoded(): read: 
Debug: 2176 1257 riscv-013.c:1652 register_read_direct(): [riscv.cpu0] mstatus = 0xa00000000
Debug: 2177 1257 riscv_reg.c:988 riscv_reg_get(): [riscv.cpu0] Read mstatus: 0xa00000000
Debug: 2178 1257 riscv.c:3018 riscv_effective_privilege_mode(): [riscv.cpu0] Effective mode=3; v=0
Debug: 2179 1257 riscv.c:3078 riscv_mmu(): [riscv.cpu0] SATP/MMU ignored in Machine mode.
Debug: 2180 1257 riscv-013.c:4473 access_memory_progbuf(): [riscv.cpu0] reading 8 words of 8 bytes at 0xffffffffffffff80
Debug: 2181 1257 program.c:33 riscv_program_write(): [riscv.cpu0] progbuf[00] = fence.i
Debug: 2182 1257 batch.c:291 riscv_batch_run_from(): [riscv.cpu0] Running batch of scans [0, 2)
Debug: 2183 1257 batch.c:255 log_batch(): 40b w 0000100f @20 -> + 00000000 @00; 0i
Debug: 2184 1257 batch.c:199 log_dmi_decoded(): write: 
Debug: 2185 1257 batch.c:255 log_batch(): 40b - 00000000 @00 -> + 0000100f @20; 0i
Debug: 2186 1257 program.c:33 riscv_program_write(): [riscv.cpu0] progbuf[01] = fence   rw,rw
Debug: 2187 1257 batch.c:291 riscv_batch_run_from(): [riscv.cpu0] Running batch of scans [0, 2)
Debug: 2188 1257 batch.c:255 log_batch(): 40b w 0330000f @21 -> + 00000000 @00; 0i
Debug: 2189 1257 batch.c:199 log_dmi_decoded(): write: 
Debug: 2190 1257 batch.c:255 log_batch(): 40b - 00000000 @00 -> + 0330000f @21; 0i
Debug: 2191 1257 riscv-013.c:745 riscv013_execute_abstract_command(): [riscv.cpu0] access register=0x241000 {regno=0x1000 write=arg0 transfer=disabled postexec=enabled aarpostincrement=disabled aarsize=32bit}
Debug: 2192 1257 batch.c:291 riscv_batch_run_from(): [riscv.cpu0] Running batch of scans [0, 3)
Debug: 2193 1259 batch.c:255 log_batch(): 40b w 00241000 @17 -> + 00000000 @00; 4i
Debug: 2194 1259 batch.c:199 log_dmi_decoded(): write: command=0x241000 {control=0x241000}
Debug: 2195 1259 batch.c:255 log_batch(): 40b r 00000000 @16 -> + 00241000 @17; 0i
Debug: 2196 1259 batch.c:255 log_batch(): 40b - 00000000 @00 -> + 02000002 @16; 0i
Debug: 2197 1259 batch.c:199 log_dmi_decoded(): read: abstractcs=0x2000002 {datacount=2 progbufsize=2}
Debug: 2198 1259 riscv-013.c:680 abstract_cmd_batch_check_and_clear_cmderr(): [riscv.cpu0] abstractcs=0x2000002 {datacount=2 relaxedpriv=full_checks busy=ready progbufsize=2 cmderr=none}
Debug: 2199 1259 riscv-013.c:3058 execute_autofence(): [riscv.cpu0] Successfully executed fence.i and fence rw, rw
Debug: 2200 1259 riscv-013_reg.c:375 riscv013_reg_save(): [riscv.cpu0] Saving fp
Debug: 2201 1259 riscv_reg.c:974 riscv_reg_get(): [riscv.cpu0] Read fp: 0x7 (cached)
Debug: 2202 1259 riscv-013_reg.c:375 riscv013_reg_save(): [riscv.cpu0] Saving s1
Debug: 2203 1259 riscv_reg.c:974 riscv_reg_get(): [riscv.cpu0] Read s1: 0x8 (cached)
Debug: 2204 1259 program.c:33 riscv_program_write(): [riscv.cpu0] progbuf[00] = ld      s1, 0(s0)
Debug: 2205 1259 batch.c:291 riscv_batch_run_from(): [riscv.cpu0] Running batch of scans [0, 2)
Debug: 2206 1259 batch.c:255 log_batch(): 40b w 00043483 @20 -> + 00000000 @00; 0i
Debug: 2207 1259 batch.c:199 log_dmi_decoded(): write: 
Debug: 2208 1259 batch.c:255 log_batch(): 40b - 00000000 @00 -> + 00043483 @20; 0i
Debug: 2209 1259 program.c:33 riscv_program_write(): [riscv.cpu0] progbuf[01] = addi    s0, s0, 8
Debug: 2210 1259 batch.c:291 riscv_batch_run_from(): [riscv.cpu0] Running batch of scans [0, 2)
Debug: 2211 1260 batch.c:255 log_batch(): 40b w 00840413 @21 -> + 00000000 @00; 0i
Debug: 2212 1260 batch.c:199 log_dmi_decoded(): write: 
Debug: 2213 1260 batch.c:255 log_batch(): 40b - 00000000 @00 -> + 00840413 @21; 0i
Debug: 2214 1260 riscv-013.c:1604 register_write_direct(): [riscv.cpu0] Writing 0xffffffffffffff80 to fp
Debug: 2215 1260 riscv-013.c:976 register_write_abstract(): [riscv.cpu0] access register=0x331008 {regno=0x1008 write=register transfer=enabled postexec=disabled aarpostincrement=disabled aarsize=64bit}
Debug: 2216 1260 batch.c:291 riscv_batch_run_from(): [riscv.cpu0] Running batch of scans [0, 5)
Debug: 2217 1260 batch.c:255 log_batch(): 40b w ffffff80 @04 -> + 00000000 @00; 0i
Debug: 2218 1260 batch.c:199 log_dmi_decoded(): write: 
Debug: 2219 1260 batch.c:255 log_batch(): 40b w ffffffff @05 -> + ffffff80 @04; 0i
Debug: 2220 1260 batch.c:199 log_dmi_decoded(): write: 
Debug: 2221 1260 batch.c:255 log_batch(): 40b w 00331008 @17 -> + ffffffff @05; 4i
Debug: 2222 1260 batch.c:199 log_dmi_decoded(): write: command=0x331008 {control=0x331008}
Debug: 2223 1260 batch.c:255 log_batch(): 40b r 00000000 @16 -> + 00331008 @17; 0i
Debug: 2224 1260 batch.c:255 log_batch(): 40b - 00000000 @00 -> + 02000002 @16; 0i
Debug: 2225 1260 batch.c:199 log_dmi_decoded(): read: abstractcs=0x2000002 {datacount=2 progbufsize=2}
Debug: 2226 1260 riscv-013.c:680 abstract_cmd_batch_check_and_clear_cmderr(): [riscv.cpu0] abstractcs=0x2000002 {datacount=2 relaxedpriv=full_checks busy=ready progbufsize=2 cmderr=none}
Debug: 2227 1260 riscv-013.c:1623 register_write_direct(): [riscv.cpu0] fp <- 0xffffffffffffff80
Debug: 2228 1260 riscv-013.c:745 riscv013_execute_abstract_command(): [riscv.cpu0] access register=0x361009 {regno=0x1009 write=arg0 transfer=enabled postexec=enabled aarpostincrement=disabled aarsize=64bit}
Debug: 2229 1260 batch.c:291 riscv_batch_run_from(): [riscv.cpu0] Running batch of scans [0, 3)
Debug: 2230 1261 batch.c:255 log_batch(): 40b w 00361009 @17 -> + 00000000 @00; 4i
Debug: 2231 1261 batch.c:199 log_dmi_decoded(): write: command=0x361009 {control=0x361009}
Debug: 2232 1261 batch.c:255 log_batch(): 40b r 00000000 @16 -> + 00361009 @17; 0i
Debug: 2233 1261 batch.c:255 log_batch(): 40b - 00000000 @00 -> + 02000302 @16; 0i
Debug: 2234 1261 batch.c:199 log_dmi_decoded(): read: abstractcs=0x2000302 {datacount=2 progbufsize=2 cmderr=exception}
Debug: 2235 1261 riscv-013.c:680 abstract_cmd_batch_check_and_clear_cmderr(): [riscv.cpu0] abstractcs=0x2000302 {datacount=2 relaxedpriv=full_checks busy=ready progbufsize=2 cmderr=exception}
Debug: 2236 1261 riscv-013.c:702 abstract_cmd_batch_check_and_clear_cmderr(): [riscv.cpu0] Abstract Command execution failed (abstractcs.cmderr = 3).
Debug: 2237 1261 batch.c:291 riscv_batch_run_from(): [riscv.cpu0] Running batch of scans [0, 2)
Debug: 2238 1262 batch.c:255 log_batch(): 40b w 00000700 @16 -> + 00000000 @00; 0i
Debug: 2239 1262 batch.c:199 log_dmi_decoded(): write: abstractcs=0x700 {cmderr=other}
Debug: 2240 1262 batch.c:255 log_batch(): 40b - 00000000 @00 -> + 00000700 @16; 0i
Error: 2241 1262 riscv-013.c:4604 riscv013_access_memory(): [riscv.cpu0] Failed to read memory (addr=0xffffffffffffff80)
  progbuf=failed (progbuf startup failed), sysbus=disabled, abstract=disabled
Debug: 2242 1262 gdb_server.c:1530 gdb_error(): Reporting -4 to GDB as generic error
Debug: 2243 1262 gdb_server.c:425 gdb_log_outgoing_packet(): [riscv.cpu0] {1} sending packet: $E0E#ba
Debug: 2244 1262 gdb_server.c:408 gdb_log_incoming_packet(): [riscv.cpu0] {1} received packet: mffffffffffffffbf,8
Debug: 2245 1262 gdb_server.c:1568 gdb_read_memory_packet(): addr: 0xffffffffffffffbf, len: 0x00000008
Debug: 2246 1262 target.c:2472 target_read_buffer(): reading buffer of 8 byte at 0xffffffffffffffbf
Debug: 2247 1262 riscv_reg.c:979 riscv_reg_get(): [riscv.cpu0] Reading priv from target
Debug: 2248 1262 riscv_reg.c:974 riscv_reg_get(): [riscv.cpu0] Read dcsr: 0x4000b0c3 (cached)
Debug: 2249 1262 riscv_reg.c:988 riscv_reg_get(): [riscv.cpu0] Read priv: 0x3
Debug: 2250 1262 riscv_reg.c:979 riscv_reg_get(): [riscv.cpu0] Reading priv from target
Debug: 2251 1262 riscv_reg.c:974 riscv_reg_get(): [riscv.cpu0] Read dcsr: 0x4000b0c3 (cached)
Debug: 2252 1262 riscv_reg.c:988 riscv_reg_get(): [riscv.cpu0] Read priv: 0x3
Debug: 2253 1262 riscv_reg.c:979 riscv_reg_get(): [riscv.cpu0] Reading mstatus from target
Debug: 2254 1262 riscv-013.c:5109 riscv013_get_register(): [riscv.cpu0] reading register mstatus
Debug: 2255 1262 riscv-013.c:1633 register_read_direct(): [riscv.cpu0] Reading mstatus
Debug: 2256 1262 riscv-013.c:745 riscv013_execute_abstract_command(): [riscv.cpu0] access register=0x320300 {regno=0x300 write=arg0 transfer=enabled postexec=disabled aarpostincrement=disabled aarsize=64bit}
Debug: 2257 1262 batch.c:291 riscv_batch_run_from(): [riscv.cpu0] Running batch of scans [0, 3)
Debug: 2258 1262 batch.c:255 log_batch(): 40b w 00320300 @17 -> + 00000000 @00; 4i
Debug: 2259 1262 batch.c:199 log_dmi_decoded(): write: command=0x320300 {control=0x320300}
Debug: 2260 1262 batch.c:255 log_batch(): 40b r 00000000 @16 -> + 00320300 @17; 0i
Debug: 2261 1262 batch.c:255 log_batch(): 40b - 00000000 @00 -> + 02000002 @16; 0i
Debug: 2262 1263 batch.c:199 log_dmi_decoded(): read: abstractcs=0x2000002 {datacount=2 progbufsize=2}
Debug: 2263 1263 riscv-013.c:680 abstract_cmd_batch_check_and_clear_cmderr(): [riscv.cpu0] abstractcs=0x2000002 {datacount=2 relaxedpriv=full_checks busy=ready progbufsize=2 cmderr=none}
Debug: 2264 1263 batch.c:291 riscv_batch_run_from(): [riscv.cpu0] Running batch of scans [0, 3)
Debug: 2265 1263 batch.c:255 log_batch(): 40b r 00000000 @04 -> + 00000000 @00; 0i
Debug: 2266 1263 batch.c:255 log_batch(): 40b r 00000000 @05 -> + 00000000 @04; 0i
Debug: 2267 1263 batch.c:199 log_dmi_decoded(): read: 
Debug: 2268 1263 batch.c:255 log_batch(): 40b - 00000000 @00 -> + 0000000a @05; 0i
Debug: 2269 1263 batch.c:199 log_dmi_decoded(): read: 
Debug: 2270 1263 riscv-013.c:1652 register_read_direct(): [riscv.cpu0] mstatus = 0xa00000000
Debug: 2271 1263 riscv_reg.c:988 riscv_reg_get(): [riscv.cpu0] Read mstatus: 0xa00000000
Debug: 2272 1263 riscv.c:3018 riscv_effective_privilege_mode(): [riscv.cpu0] Effective mode=3; v=0
Debug: 2273 1263 riscv.c:3078 riscv_mmu(): [riscv.cpu0] SATP/MMU ignored in Machine mode.
Debug: 2274 1263 riscv-013.c:4473 access_memory_progbuf(): [riscv.cpu0] reading 1 words of 1 bytes at 0xffffffffffffffbf
Debug: 2275 1263 program.c:33 riscv_program_write(): [riscv.cpu0] progbuf[00] = fence.i
Debug: 2276 1263 batch.c:291 riscv_batch_run_from(): [riscv.cpu0] Running batch of scans [0, 2)
Debug: 2277 1263 batch.c:255 log_batch(): 40b w 0000100f @20 -> + 00000000 @00; 0i
Debug: 2278 1263 batch.c:199 log_dmi_decoded(): write: 
Debug: 2279 1263 batch.c:255 log_batch(): 40b - 00000000 @00 -> + 0000100f @20; 0i
Debug: 2280 1263 program.c:33 riscv_program_write(): [riscv.cpu0] progbuf[01] = fence   rw,rw
Debug: 2281 1264 batch.c:291 riscv_batch_run_from(): [riscv.cpu0] Running batch of scans [0, 2)
Debug: 2282 1264 batch.c:255 log_batch(): 40b w 0330000f @21 -> + 00000000 @00; 0i
Debug: 2283 1264 batch.c:199 log_dmi_decoded(): write: 
Debug: 2284 1264 batch.c:255 log_batch(): 40b - 00000000 @00 -> + 0330000f @21; 0i
Debug: 2285 1264 riscv-013.c:745 riscv013_execute_abstract_command(): [riscv.cpu0] access register=0x241000 {regno=0x1000 write=arg0 transfer=disabled postexec=enabled aarpostincrement=disabled aarsize=32bit}
Debug: 2286 1264 batch.c:291 riscv_batch_run_from(): [riscv.cpu0] Running batch of scans [0, 3)
Debug: 2287 1264 batch.c:255 log_batch(): 40b w 00241000 @17 -> + 00000000 @00; 4i
Debug: 2288 1264 batch.c:199 log_dmi_decoded(): write: command=0x241000 {control=0x241000}
Debug: 2289 1264 batch.c:255 log_batch(): 40b r 00000000 @16 -> + 00241000 @17; 0i
Debug: 2290 1264 batch.c:255 log_batch(): 40b - 00000000 @00 -> + 02000002 @16; 0i
Debug: 2291 1264 batch.c:199 log_dmi_decoded(): read: abstractcs=0x2000002 {datacount=2 progbufsize=2}
Debug: 2292 1264 riscv-013.c:680 abstract_cmd_batch_check_and_clear_cmderr(): [riscv.cpu0] abstractcs=0x2000002 {datacount=2 relaxedpriv=full_checks busy=ready progbufsize=2 cmderr=none}
Debug: 2293 1264 riscv-013.c:3058 execute_autofence(): [riscv.cpu0] Successfully executed fence.i and fence rw, rw
Debug: 2294 1264 riscv-013_reg.c:375 riscv013_reg_save(): [riscv.cpu0] Saving s1
Debug: 2295 1264 riscv_reg.c:974 riscv_reg_get(): [riscv.cpu0] Read s1: 0x8 (cached)
Debug: 2296 1264 program.c:33 riscv_program_write(): [riscv.cpu0] progbuf[00] = lb      s1, 0(s1)
Debug: 2297 1264 batch.c:291 riscv_batch_run_from(): [riscv.cpu0] Running batch of scans [0, 2)
Debug: 2298 1265 batch.c:255 log_batch(): 40b w 00048483 @20 -> + 00000000 @00; 0i
Debug: 2299 1265 batch.c:199 log_dmi_decoded(): write: 
Debug: 2300 1265 batch.c:255 log_batch(): 40b - 00000000 @00 -> + 00048483 @20; 0i
Debug: 2301 1265 program.c:33 riscv_program_write(): [riscv.cpu0] progbuf[01] = ebreak
Debug: 2302 1265 batch.c:291 riscv_batch_run_from(): [riscv.cpu0] Running batch of scans [0, 2)
Debug: 2303 1265 batch.c:255 log_batch(): 40b w 00100073 @21 -> + 00000000 @00; 0i
Debug: 2304 1265 batch.c:199 log_dmi_decoded(): write: 
Debug: 2305 1265 batch.c:255 log_batch(): 40b - 00000000 @00 -> + 00100073 @21; 0i
Debug: 2306 1265 batch.c:291 riscv_batch_run_from(): [riscv.cpu0] Running batch of scans [0, 2)
Debug: 2307 1265 batch.c:255 log_batch(): 40b w ffffffff @05 -> + 00000000 @00; 0i
Debug: 2308 1265 batch.c:199 log_dmi_decoded(): write: 
Debug: 2309 1265 batch.c:255 log_batch(): 40b - 00000000 @00 -> + ffffffff @05; 0i
Debug: 2310 1265 batch.c:291 riscv_batch_run_from(): [riscv.cpu0] Running batch of scans [0, 2)
Debug: 2311 1265 batch.c:255 log_batch(): 40b w ffffffbf @04 -> + 00000000 @00; 0i
Debug: 2312 1265 batch.c:199 log_dmi_decoded(): write: 
Debug: 2313 1266 batch.c:255 log_batch(): 40b - 00000000 @00 -> + ffffffbf @04; 0i
Debug: 2314 1266 riscv-013.c:745 riscv013_execute_abstract_command(): [riscv.cpu0] access register=0x371009 {regno=0x1009 write=register transfer=enabled postexec=enabled aarpostincrement=disabled aarsize=64bit}
Debug: 2315 1266 batch.c:291 riscv_batch_run_from(): [riscv.cpu0] Running batch of scans [0, 3)
Debug: 2316 1266 batch.c:255 log_batch(): 40b w 00371009 @17 -> + 00000000 @00; 4i
Debug: 2317 1266 batch.c:199 log_dmi_decoded(): write: command=0x371009 {control=0x371009}
Debug: 2318 1266 batch.c:255 log_batch(): 40b r 00000000 @16 -> + 00371009 @17; 0i
Debug: 2319 1266 batch.c:255 log_batch(): 40b - 00000000 @00 -> + 02000302 @16; 0i
Debug: 2320 1266 batch.c:199 log_dmi_decoded(): read: abstractcs=0x2000302 {datacount=2 progbufsize=2 cmderr=exception}
Debug: 2321 1266 riscv-013.c:680 abstract_cmd_batch_check_and_clear_cmderr(): [riscv.cpu0] abstractcs=0x2000302 {datacount=2 relaxedpriv=full_checks busy=ready progbufsize=2 cmderr=exception}
Debug: 2322 1266 riscv-013.c:702 abstract_cmd_batch_check_and_clear_cmderr(): [riscv.cpu0] Abstract Command execution failed (abstractcs.cmderr = 3).
Debug: 2323 1266 batch.c:291 riscv_batch_run_from(): [riscv.cpu0] Running batch of scans [0, 2)
Debug: 2324 1266 batch.c:255 log_batch(): 40b w 00000700 @16 -> + 00000000 @00; 0i
Debug: 2325 1266 batch.c:199 log_dmi_decoded(): write: abstractcs=0x700 {cmderr=other}
Debug: 2326 1266 batch.c:255 log_batch(): 40b - 00000000 @00 -> + 00000700 @16; 0i
Error: 2327 1266 riscv-013.c:4604 riscv013_access_memory(): [riscv.cpu0] Failed to read memory (addr=0xffffffffffffffbf)
  progbuf=failed (execute abstract failed), sysbus=disabled, abstract=disabled
Debug: 2328 1266 gdb_server.c:1530 gdb_error(): Reporting -4 to GDB as generic error
Debug: 2329 1266 gdb_server.c:425 gdb_log_outgoing_packet(): [riscv.cpu0] {1} sending packet: $E0E#ba
Debug: 2330 1301 riscv.c:4022 riscv_openocd_poll(): [riscv.cpu0] Polling all harts.
Debug: 2331 1301 riscv.c:3845 riscv_poll_hart(): [riscv.cpu0] polling, target->state=2
Debug: 2332 1301 batch.c:291 riscv_batch_run_from(): [riscv.cpu0] Running batch of scans [0, 2)
Debug: 2333 1301 batch.c:255 log_batch(): 40b r 00000000 @11 -> + 00000000 @00; 0i
Debug: 2334 1301 batch.c:255 log_batch(): 40b - 00000000 @00 -> + 00430382 @11; 0i
Debug: 2335 1301 batch.c:199 log_dmi_decoded(): read: dmstatus=0x430382 {version=0_13 anyresumeack=1 allresumeack=1 impebreak=1 authenticated=true anyhalted=1 allhalted=1}
Debug: 2336 1301 riscv.c:4081 riscv_openocd_poll(): [riscv.cpu0] should_remain_halted=0, should_resume=0
Debug: 2337 1301 riscv.c:4022 riscv_openocd_poll(): [riscv.cpu1] Polling all harts.
Debug: 2338 1301 riscv.c:3845 riscv_poll_hart(): [riscv.cpu1] polling, target->state=2
Debug: 2339 1301 batch.c:291 riscv_batch_run_from(): [riscv.cpu1] Running batch of scans [0, 2)
Debug: 2340 1303 batch.c:255 log_batch(): 40b w 00010001 @10 -> + 00000000 @00; 0i
Debug: 2341 1303 batch.c:199 log_dmi_decoded(): write: dmcontrol=0x10001 {dmactive=active hartsello=1}
Debug: 2342 1303 batch.c:255 log_batch(): 40b - 00000000 @00 -> + 00010001 @10; 0i
Debug: 2343 1303 batch.c:291 riscv_batch_run_from(): [riscv.cpu1] Running batch of scans [0, 2)
Debug: 2344 1303 batch.c:255 log_batch(): 40b r 00000000 @11 -> + 00000000 @00; 0i
Debug: 2345 1303 batch.c:255 log_batch(): 40b - 00000000 @00 -> + 00430382 @11; 0i
Debug: 2346 1303 batch.c:199 log_dmi_decoded(): read: dmstatus=0x430382 {version=0_13 anyresumeack=1 allresumeack=1 impebreak=1 authenticated=true anyhalted=1 allhalted=1}
Debug: 2347 1303 riscv_reg.c:781 riscv_reg_flush_all(): [riscv.cpu1] Flushing register cache
Debug: 2348 1303 riscv_reg.c:798 riscv_reg_flush_all(): [riscv.cpu1] Flush of register cache completed
Debug: 2349 1303 riscv.c:4081 riscv_openocd_poll(): [riscv.cpu1] should_remain_halted=0, should_resume=0
Info : 2350 1319 server.c:91 add_connection(): accepting 'gdb' connection on tcp/0
Debug: 2351 1319 breakpoints.c:330 breakpoint_remove_all_internal(): [riscv.cpu1] Delete all breakpoints
Debug: 2352 1319 breakpoints.c:417 watchpoint_remove_all_internal(): [riscv.cpu1] Delete all watchpoints
Debug: 2353 1320 target.c:1826 target_call_event_callbacks(): target event 22 (gdb-attach) for core riscv.cpu1
Debug: 2354 1320 target.c:4705 target_handle_event(): target: riscv.cpu1 (riscv) event: 22 (gdb-attach) action: halt 1000
Debug: 2355 1320 command.c:82 script_debug(): command - halt 1000
Debug: 2356 1320 target.c:3269 handle_halt_command(): -
Debug: 2357 1320 riscv.c:2727 riscv_halt(): [riscv.cpu1] halting all harts
Debug: 2358 1320 riscv.c:2648 halt_prep(): [riscv.cpu1] prep hart, debug_reason=0
Debug: 2359 1320 riscv.c:2651 halt_prep(): [riscv.cpu1] Hart is already halted.
Debug: 2360 1320 batch.c:291 riscv_batch_run_from(): [riscv.cpu1] Running batch of scans [0, 2)
Debug: 2361 1320 batch.c:255 log_batch(): 40b r 00000000 @11 -> + 00000000 @00; 0i
Debug: 2362 1320 batch.c:255 log_batch(): 40b - 00000000 @00 -> + 00430382 @11; 0i
Debug: 2363 1320 batch.c:199 log_dmi_decoded(): read: dmstatus=0x430382 {version=0_13 anyresumeack=1 allresumeack=1 impebreak=1 authenticated=true anyhalted=1 allhalted=1}
Debug: 2364 1320 riscv.c:2671 riscv_halt_go_all_harts(): [riscv.cpu1] Hart is already halted.
Debug: 2365 1320 target.c:1826 target_call_event_callbacks(): target event 0 (gdb-halt) for core riscv.cpu1
Debug: 2366 1320 target.c:1826 target_call_event_callbacks(): target event 1 (halted) for core riscv.cpu1
User : 2367 1320 riscv.c:3572 riscv_arch_state(): riscv.cpu1 halted due to debug-request. Semihosting is active.
Debug: 2368 1320 riscv.c:4022 riscv_openocd_poll(): [riscv.cpu1] Polling all harts.
Debug: 2369 1320 riscv.c:3845 riscv_poll_hart(): [riscv.cpu1] polling, target->state=2
Debug: 2370 1320 batch.c:291 riscv_batch_run_from(): [riscv.cpu1] Running batch of scans [0, 2)
Debug: 2371 1321 batch.c:255 log_batch(): 40b r 00000000 @11 -> + 00000000 @00; 0i
Debug: 2372 1321 batch.c:255 log_batch(): 40b - 00000000 @00 -> + 00430382 @11; 0i
Debug: 2373 1321 batch.c:199 log_dmi_decoded(): read: dmstatus=0x430382 {version=0_13 anyresumeack=1 allresumeack=1 impebreak=1 authenticated=true anyhalted=1 allhalted=1}
Debug: 2374 1321 riscv_reg.c:781 riscv_reg_flush_all(): [riscv.cpu1] Flushing register cache
Debug: 2375 1321 riscv_reg.c:798 riscv_reg_flush_all(): [riscv.cpu1] Flush of register cache completed
Debug: 2376 1321 riscv.c:4081 riscv_openocd_poll(): [riscv.cpu1] should_remain_halted=0, should_resume=0
Info : 2377 1321 gdb_server.c:1095 gdb_new_connection(): New GDB Connection: 2, Target riscv.cpu1, state: halted
Debug: 2378 1321 gdb_server.c:408 gdb_log_incoming_packet(): [riscv.cpu1] {2} received packet: qSupported:multiprocess+;swbreak+;hwbreak+;qRelocInsn+;fork-events+;vfork-events+;exec-events+;vContSupported+;QThreadEvents+;no-resumed+;memory-tagging+
Debug: 2379 1321 riscv.c:3513 riscv_get_gdb_reg_list_internal(): [riscv.cpu1] reg_class=0, read=0
Debug: 2380 1321 gdb_server.c:425 gdb_log_outgoing_packet(): [riscv.cpu1] {2} sending packet: $PacketSize=4000;qXfer:memory-map:read-;qXfer:features:read+;qXfer:threads:read+;QStartNoAckMode+;vContSupported+#04
Debug: 2381 1321 gdb_server.c:408 gdb_log_incoming_packet(): [riscv.cpu1] {2} received packet: +
Debug: 2382 1321 gdb_server.c:408 gdb_log_incoming_packet(): [riscv.cpu1] {2} received packet: vMustReplyEmpty
Debug: 2383 1321 gdb_server.c:425 gdb_log_outgoing_packet(): [riscv.cpu1] {2} sending packet: $#00
Debug: 2384 1321 gdb_server.c:408 gdb_log_incoming_packet(): [riscv.cpu1] {2} received packet: +
Debug: 2385 1322 gdb_server.c:408 gdb_log_incoming_packet(): [riscv.cpu1] {2} received packet: QStartNoAckMode
Debug: 2386 1322 gdb_server.c:425 gdb_log_outgoing_packet(): [riscv.cpu1] {2} sending packet: $OK#9a
Debug: 2387 1322 gdb_server.c:408 gdb_log_incoming_packet(): [riscv.cpu1] {2} received packet: +
Debug: 2388 1322 gdb_server.c:716 gdb_get_packet_inner(): Received first acknowledgment after entering noack mode. Ignoring it.
Debug: 2389 1322 gdb_server.c:408 gdb_log_incoming_packet(): [riscv.cpu1] {2} received packet: !
Debug: 2390 1322 gdb_server.c:425 gdb_log_outgoing_packet(): [riscv.cpu1] {2} sending packet: $OK#9a
Debug: 2391 1322 gdb_server.c:408 gdb_log_incoming_packet(): [riscv.cpu1] {2} received packet: Hg0
Debug: 2392 1322 gdb_server.c:425 gdb_log_outgoing_packet(): [riscv.cpu1] {2} sending packet: $OK#9a
Debug: 2393 1322 gdb_server.c:408 gdb_log_incoming_packet(): [riscv.cpu1] {2} received packet: qXfer:features:read:target.xml:0,1000
Debug: 2394 1322 riscv.c:3513 riscv_get_gdb_reg_list_internal(): [riscv.cpu1] reg_class=0, read=0
Debug: 2395 1322 gdb_server.c:422 gdb_log_outgoing_packet(): [riscv.cpu1] {2} sending packet: $<binary-data-4097-bytes>#2d
Debug: 2396 1323 gdb_server.c:408 gdb_log_incoming_packet(): [riscv.cpu1] {2} received packet: qXfer:features:read:target.xml:1000,1000
Debug: 2397 1323 gdb_server.c:422 gdb_log_outgoing_packet(): [riscv.cpu1] {2} sending packet: $<binary-data-4097-bytes>#f2
Debug: 2398 1323 gdb_server.c:408 gdb_log_incoming_packet(): [riscv.cpu1] {2} received packet: qXfer:features:read:target.xml:2000,1000
Debug: 2399 1323 gdb_server.c:422 gdb_log_outgoing_packet(): [riscv.cpu1] {2} sending packet: $<binary-data-4097-bytes>#c9
Debug: 2400 1323 gdb_server.c:408 gdb_log_incoming_packet(): [riscv.cpu1] {2} received packet: qXfer:features:read:target.xml:3000,1000
Debug: 2401 1323 gdb_server.c:422 gdb_log_outgoing_packet(): [riscv.cpu1] {2} sending packet: $<binary-data-4097-bytes>#fb
Debug: 2402 1324 gdb_server.c:408 gdb_log_incoming_packet(): [riscv.cpu1] {2} received packet: qXfer:features:read:target.xml:4000,1000
Debug: 2403 1324 gdb_server.c:422 gdb_log_outgoing_packet(): [riscv.cpu1] {2} sending packet: $<binary-data-4097-bytes>#e9
Debug: 2404 1324 gdb_server.c:408 gdb_log_incoming_packet(): [riscv.cpu1] {2} received packet: qXfer:features:read:target.xml:5000,1000
Debug: 2405 1324 gdb_server.c:422 gdb_log_outgoing_packet(): [riscv.cpu1] {2} sending packet: $<binary-data-4097-bytes>#99
Debug: 2406 1325 gdb_server.c:408 gdb_log_incoming_packet(): [riscv.cpu1] {2} received packet: qXfer:features:read:target.xml:6000,1000
Debug: 2407 1325 gdb_server.c:422 gdb_log_outgoing_packet(): [riscv.cpu1] {2} sending packet: $<binary-data-4097-bytes>#c1
Debug: 2408 1325 gdb_server.c:408 gdb_log_incoming_packet(): [riscv.cpu1] {2} received packet: qXfer:features:read:target.xml:7000,1000
Debug: 2409 1325 gdb_server.c:422 gdb_log_outgoing_packet(): [riscv.cpu1] {2} sending packet: $<binary-data-4097-bytes>#55
Debug: 2410 1325 gdb_server.c:408 gdb_log_incoming_packet(): [riscv.cpu1] {2} received packet: qXfer:features:read:target.xml:8000,1000
Debug: 2411 1325 gdb_server.c:422 gdb_log_outgoing_packet(): [riscv.cpu1] {2} sending packet: $<binary-data-3754-bytes>#8d
Debug: 2412 1331 gdb_server.c:408 gdb_log_incoming_packet(): [riscv.cpu1] {2} received packet: qTStatus
Debug: 2413 1331 gdb_server.c:425 gdb_log_outgoing_packet(): [riscv.cpu1] {2} sending packet: $#00
Debug: 2414 1332 gdb_server.c:408 gdb_log_incoming_packet(): [riscv.cpu1] {2} received packet: ?
Debug: 2415 1332 gdb_server.c:179 gdb_last_signal(): [riscv.cpu1] Debug reason is: DBGRQ
Debug: 2416 1332 gdb_server.c:425 gdb_log_outgoing_packet(): [riscv.cpu1] {2} sending packet: $S02#b5
Debug: 2417 1332 gdb_server.c:408 gdb_log_incoming_packet(): [riscv.cpu1] {2} received packet: qXfer:threads:read::0,1000
Debug: 2418 1332 gdb_server.c:422 gdb_log_outgoing_packet(): [riscv.cpu1] {2} sending packet: $<binary-data-44-bytes>#02
Debug: 2419 1332 gdb_server.c:408 gdb_log_incoming_packet(): [riscv.cpu1] {2} received packet: Hc-1
Debug: 2420 1332 gdb_server.c:425 gdb_log_outgoing_packet(): [riscv.cpu1] {2} sending packet: $OK#9a
Debug: 2421 1332 gdb_server.c:408 gdb_log_incoming_packet(): [riscv.cpu1] {2} received packet: qC
Debug: 2422 1332 gdb_server.c:425 gdb_log_outgoing_packet(): [riscv.cpu1] {2} sending packet: $QC0#c4
Debug: 2423 1332 gdb_server.c:408 gdb_log_incoming_packet(): [riscv.cpu1] {2} received packet: qAttached
Debug: 2424 1332 gdb_server.c:425 gdb_log_outgoing_packet(): [riscv.cpu1] {2} sending packet: $1#31
Debug: 2425 1332 gdb_server.c:408 gdb_log_incoming_packet(): [riscv.cpu1] {2} received packet: g
Debug: 2426 1332 riscv.c:3513 riscv_get_gdb_reg_list_internal(): [riscv.cpu1] reg_class=1, read=1
Debug: 2427 1332 riscv_reg.c:979 riscv_reg_get(): [riscv.cpu1] Reading zero from target
Debug: 2428 1332 riscv-013.c:5109 riscv013_get_register(): [riscv.cpu1] reading register zero
Debug: 2429 1332 riscv-013.c:1633 register_read_direct(): [riscv.cpu1] Reading zero
Debug: 2430 1332 riscv-013.c:745 riscv013_execute_abstract_command(): [riscv.cpu1] access register=0x321000 {regno=0x1000 write=arg0 transfer=enabled postexec=disabled aarpostincrement=disabled aarsize=64bit}
Debug: 2431 1332 batch.c:291 riscv_batch_run_from(): [riscv.cpu1] Running batch of scans [0, 3)
Debug: 2432 1333 batch.c:255 log_batch(): 40b w 00321000 @17 -> + 00000000 @00; 4i
Debug: 2433 1333 batch.c:199 log_dmi_decoded(): write: command=0x321000 {control=0x321000}
Debug: 2434 1333 batch.c:255 log_batch(): 40b r 00000000 @16 -> + 00321000 @17; 0i
Debug: 2435 1333 batch.c:255 log_batch(): 40b - 00000000 @00 -> + 02000002 @16; 0i
Debug: 2436 1333 batch.c:199 log_dmi_decoded(): read: abstractcs=0x2000002 {datacount=2 progbufsize=2}
Debug: 2437 1333 riscv-013.c:680 abstract_cmd_batch_check_and_clear_cmderr(): [riscv.cpu1] abstractcs=0x2000002 {datacount=2 relaxedpriv=full_checks busy=ready progbufsize=2 cmderr=none}
Debug: 2438 1333 batch.c:291 riscv_batch_run_from(): [riscv.cpu1] Running batch of scans [0, 3)
Debug: 2439 1333 batch.c:255 log_batch(): 40b r 00000000 @04 -> + 00000000 @00; 0i
Debug: 2440 1333 batch.c:255 log_batch(): 40b r 00000000 @05 -> + 00000000 @04; 0i
Debug: 2441 1333 batch.c:199 log_dmi_decoded(): read: 
Debug: 2442 1333 batch.c:255 log_batch(): 40b - 00000000 @00 -> + 00000000 @05; 0i
Debug: 2443 1333 batch.c:199 log_dmi_decoded(): read: 
Debug: 2444 1333 riscv-013.c:1652 register_read_direct(): [riscv.cpu1] zero = 0x0
Debug: 2445 1333 riscv_reg.c:988 riscv_reg_get(): [riscv.cpu1] Read zero: 0x0
Debug: 2446 1333 riscv-013_reg.c:40 riscv013_reg_get(): [riscv.cpu1] Read 0x0000000000000000 from zero (valid=1).
Debug: 2447 1333 riscv_reg.c:979 riscv_reg_get(): [riscv.cpu1] Reading ra from target
Debug: 2448 1333 riscv-013.c:5109 riscv013_get_register(): [riscv.cpu1] reading register ra
Debug: 2449 1333 riscv-013.c:1633 register_read_direct(): [riscv.cpu1] Reading ra
Debug: 2450 1334 riscv-013.c:745 riscv013_execute_abstract_command(): [riscv.cpu1] access register=0x321001 {regno=0x1001 write=arg0 transfer=enabled postexec=disabled aarpostincrement=disabled aarsize=64bit}
Debug: 2451 1334 batch.c:291 riscv_batch_run_from(): [riscv.cpu1] Running batch of scans [0, 3)
Debug: 2452 1334 batch.c:255 log_batch(): 40b w 00321001 @17 -> + 00000000 @00; 4i
Debug: 2453 1334 batch.c:199 log_dmi_decoded(): write: command=0x321001 {control=0x321001}
Debug: 2454 1334 batch.c:255 log_batch(): 40b r 00000000 @16 -> + 00321001 @17; 0i
Debug: 2455 1334 batch.c:255 log_batch(): 40b - 00000000 @00 -> + 02000002 @16; 0i
Debug: 2456 1334 batch.c:199 log_dmi_decoded(): read: abstractcs=0x2000002 {datacount=2 progbufsize=2}
Debug: 2457 1334 riscv-013.c:680 abstract_cmd_batch_check_and_clear_cmderr(): [riscv.cpu1] abstractcs=0x2000002 {datacount=2 relaxedpriv=full_checks busy=ready progbufsize=2 cmderr=none}
Debug: 2458 1334 batch.c:291 riscv_batch_run_from(): [riscv.cpu1] Running batch of scans [0, 3)
Debug: 2459 1334 batch.c:255 log_batch(): 40b r 00000000 @04 -> + 00000000 @00; 0i
Debug: 2460 1334 batch.c:255 log_batch(): 40b r 00000000 @05 -> + 00000100 @04; 0i
Debug: 2461 1334 batch.c:199 log_dmi_decoded(): read: 
Debug: 2462 1334 batch.c:255 log_batch(): 40b - 00000000 @00 -> + 00000000 @05; 0i
Debug: 2463 1334 batch.c:199 log_dmi_decoded(): read: 
Debug: 2464 1334 riscv-013.c:1652 register_read_direct(): [riscv.cpu1] ra = 0x100
Debug: 2465 1334 riscv_reg.c:988 riscv_reg_get(): [riscv.cpu1] Read ra: 0x100
Debug: 2466 1334 riscv-013_reg.c:40 riscv013_reg_get(): [riscv.cpu1] Read 0x0000000000000100 from ra (valid=1).
Debug: 2467 1334 riscv_reg.c:979 riscv_reg_get(): [riscv.cpu1] Reading sp from target
Debug: 2468 1334 riscv-013.c:5109 riscv013_get_register(): [riscv.cpu1] reading register sp
Debug: 2469 1334 riscv-013.c:1633 register_read_direct(): [riscv.cpu1] Reading sp
Debug: 2470 1334 riscv-013.c:745 riscv013_execute_abstract_command(): [riscv.cpu1] access register=0x321002 {regno=0x1002 write=arg0 transfer=enabled postexec=disabled aarpostincrement=disabled aarsize=64bit}
Debug: 2471 1334 batch.c:291 riscv_batch_run_from(): [riscv.cpu1] Running batch of scans [0, 3)
Debug: 2472 1335 batch.c:255 log_batch(): 40b w 00321002 @17 -> + 00000000 @00; 4i
Debug: 2473 1335 batch.c:199 log_dmi_decoded(): write: command=0x321002 {control=0x321002}
Debug: 2474 1335 batch.c:255 log_batch(): 40b r 00000000 @16 -> + 00321002 @17; 0i
Debug: 2475 1335 batch.c:255 log_batch(): 40b - 00000000 @00 -> + 02000002 @16; 0i
Debug: 2476 1335 batch.c:199 log_dmi_decoded(): read: abstractcs=0x2000002 {datacount=2 progbufsize=2}
Debug: 2477 1335 riscv-013.c:680 abstract_cmd_batch_check_and_clear_cmderr(): [riscv.cpu1] abstractcs=0x2000002 {datacount=2 relaxedpriv=full_checks busy=ready progbufsize=2 cmderr=none}
Debug: 2478 1335 batch.c:291 riscv_batch_run_from(): [riscv.cpu1] Running batch of scans [0, 3)
Debug: 2479 1335 batch.c:255 log_batch(): 40b r 00000000 @04 -> + 00000000 @00; 0i
Debug: 2480 1335 batch.c:255 log_batch(): 40b r 00000000 @05 -> + 00000101 @04; 0i
Debug: 2481 1335 batch.c:199 log_dmi_decoded(): read: 
Debug: 2482 1335 batch.c:255 log_batch(): 40b - 00000000 @00 -> + 00000000 @05; 0i
Debug: 2483 1335 batch.c:199 log_dmi_decoded(): read: 
Debug: 2484 1335 riscv-013.c:1652 register_read_direct(): [riscv.cpu1] sp = 0x101
Debug: 2485 1335 riscv_reg.c:988 riscv_reg_get(): [riscv.cpu1] Read sp: 0x101
Debug: 2486 1335 riscv-013_reg.c:40 riscv013_reg_get(): [riscv.cpu1] Read 0x0000000000000101 from sp (valid=1).
Debug: 2487 1335 riscv_reg.c:979 riscv_reg_get(): [riscv.cpu1] Reading gp from target
Debug: 2488 1335 riscv-013.c:5109 riscv013_get_register(): [riscv.cpu1] reading register gp
Debug: 2489 1335 riscv-013.c:1633 register_read_direct(): [riscv.cpu1] Reading gp
Debug: 2490 1335 riscv-013.c:745 riscv013_execute_abstract_command(): [riscv.cpu1] access register=0x321003 {regno=0x1003 write=arg0 transfer=enabled postexec=disabled aarpostincrement=disabled aarsize=64bit}
Debug: 2491 1335 batch.c:291 riscv_batch_run_from(): [riscv.cpu1] Running batch of scans [0, 3)
Debug: 2492 1336 batch.c:255 log_batch(): 40b w 00321003 @17 -> + 00000000 @00; 4i
Debug: 2493 1336 batch.c:199 log_dmi_decoded(): write: command=0x321003 {control=0x321003}
Debug: 2494 1336 batch.c:255 log_batch(): 40b r 00000000 @16 -> + 00321003 @17; 0i
Debug: 2495 1336 batch.c:255 log_batch(): 40b - 00000000 @00 -> + 02000002 @16; 0i
Debug: 2496 1336 batch.c:199 log_dmi_decoded(): read: abstractcs=0x2000002 {datacount=2 progbufsize=2}
Debug: 2497 1336 riscv-013.c:680 abstract_cmd_batch_check_and_clear_cmderr(): [riscv.cpu1] abstractcs=0x2000002 {datacount=2 relaxedpriv=full_checks busy=ready progbufsize=2 cmderr=none}
Debug: 2498 1336 batch.c:291 riscv_batch_run_from(): [riscv.cpu1] Running batch of scans [0, 3)
Debug: 2499 1336 batch.c:255 log_batch(): 40b r 00000000 @04 -> + 00000000 @00; 0i
Debug: 2500 1336 batch.c:255 log_batch(): 40b r 00000000 @05 -> + 00000102 @04; 0i
Debug: 2501 1336 batch.c:199 log_dmi_decoded(): read: 
Debug: 2502 1336 batch.c:255 log_batch(): 40b - 00000000 @00 -> + 00000000 @05; 0i
Debug: 2503 1336 batch.c:199 log_dmi_decoded(): read: 
Debug: 2504 1336 riscv-013.c:1652 register_read_direct(): [riscv.cpu1] gp = 0x102
Debug: 2505 1336 riscv_reg.c:988 riscv_reg_get(): [riscv.cpu1] Read gp: 0x102
Debug: 2506 1336 riscv-013_reg.c:40 riscv013_reg_get(): [riscv.cpu1] Read 0x0000000000000102 from gp (valid=1).
Debug: 2507 1336 riscv_reg.c:979 riscv_reg_get(): [riscv.cpu1] Reading tp from target
Debug: 2508 1336 riscv-013.c:5109 riscv013_get_register(): [riscv.cpu1] reading register tp
Debug: 2509 1336 riscv-013.c:1633 register_read_direct(): [riscv.cpu1] Reading tp
Debug: 2510 1336 riscv-013.c:745 riscv013_execute_abstract_command(): [riscv.cpu1] access register=0x321004 {regno=0x1004 write=arg0 transfer=enabled postexec=disabled aarpostincrement=disabled aarsize=64bit}
Debug: 2511 1336 batch.c:291 riscv_batch_run_from(): [riscv.cpu1] Running batch of scans [0, 3)
Debug: 2512 1337 batch.c:255 log_batch(): 40b w 00321004 @17 -> + 00000000 @00; 4i
Debug: 2513 1337 batch.c:199 log_dmi_decoded(): write: command=0x321004 {control=0x321004}
Debug: 2514 1337 batch.c:255 log_batch(): 40b r 00000000 @16 -> + 00321004 @17; 0i
Debug: 2515 1337 batch.c:255 log_batch(): 40b - 00000000 @00 -> + 02000002 @16; 0i
Debug: 2516 1337 batch.c:199 log_dmi_decoded(): read: abstractcs=0x2000002 {datacount=2 progbufsize=2}
Debug: 2517 1337 riscv-013.c:680 abstract_cmd_batch_check_and_clear_cmderr(): [riscv.cpu1] abstractcs=0x2000002 {datacount=2 relaxedpriv=full_checks busy=ready progbufsize=2 cmderr=none}
Debug: 2518 1337 batch.c:291 riscv_batch_run_from(): [riscv.cpu1] Running batch of scans [0, 3)
Debug: 2519 1337 batch.c:255 log_batch(): 40b r 00000000 @04 -> + 00000000 @00; 0i
Debug: 2520 1337 batch.c:255 log_batch(): 40b r 00000000 @05 -> + 00000103 @04; 0i
Debug: 2521 1337 batch.c:199 log_dmi_decoded(): read: 
Debug: 2522 1337 batch.c:255 log_batch(): 40b - 00000000 @00 -> + 00000000 @05; 0i
Debug: 2523 1337 batch.c:199 log_dmi_decoded(): read: 
Debug: 2524 1337 riscv-013.c:1652 register_read_direct(): [riscv.cpu1] tp = 0x103
Debug: 2525 1337 riscv_reg.c:988 riscv_reg_get(): [riscv.cpu1] Read tp: 0x103
Debug: 2526 1337 riscv-013_reg.c:40 riscv013_reg_get(): [riscv.cpu1] Read 0x0000000000000103 from tp (valid=1).
Debug: 2527 1337 riscv_reg.c:979 riscv_reg_get(): [riscv.cpu1] Reading t0 from target
Debug: 2528 1337 riscv-013.c:5109 riscv013_get_register(): [riscv.cpu1] reading register t0
Debug: 2529 1337 riscv-013.c:1633 register_read_direct(): [riscv.cpu1] Reading t0
Debug: 2530 1337 riscv-013.c:745 riscv013_execute_abstract_command(): [riscv.cpu1] access register=0x321005 {regno=0x1005 write=arg0 transfer=enabled postexec=disabled aarpostincrement=disabled aarsize=64bit}
Debug: 2531 1337 batch.c:291 riscv_batch_run_from(): [riscv.cpu1] Running batch of scans [0, 3)
Debug: 2532 1338 batch.c:255 log_batch(): 40b w 00321005 @17 -> + 00000000 @00; 4i
Debug: 2533 1338 batch.c:199 log_dmi_decoded(): write: command=0x321005 {control=0x321005}
Debug: 2534 1338 batch.c:255 log_batch(): 40b r 00000000 @16 -> + 00321005 @17; 0i
Debug: 2535 1338 batch.c:255 log_batch(): 40b - 00000000 @00 -> + 02000002 @16; 0i
Debug: 2536 1338 batch.c:199 log_dmi_decoded(): read: abstractcs=0x2000002 {datacount=2 progbufsize=2}
Debug: 2537 1338 riscv-013.c:680 abstract_cmd_batch_check_and_clear_cmderr(): [riscv.cpu1] abstractcs=0x2000002 {datacount=2 relaxedpriv=full_checks busy=ready progbufsize=2 cmderr=none}
Debug: 2538 1338 batch.c:291 riscv_batch_run_from(): [riscv.cpu1] Running batch of scans [0, 3)
Debug: 2539 1338 batch.c:255 log_batch(): 40b r 00000000 @04 -> + 00000000 @00; 0i
Debug: 2540 1338 batch.c:255 log_batch(): 40b r 00000000 @05 -> + 00000104 @04; 0i
Debug: 2541 1338 batch.c:199 log_dmi_decoded(): read: 
Debug: 2542 1338 batch.c:255 log_batch(): 40b - 00000000 @00 -> + 00000000 @05; 0i
Debug: 2543 1338 batch.c:199 log_dmi_decoded(): read: 
Debug: 2544 1338 riscv-013.c:1652 register_read_direct(): [riscv.cpu1] t0 = 0x104
Debug: 2545 1338 riscv_reg.c:988 riscv_reg_get(): [riscv.cpu1] Read t0: 0x104
Debug: 2546 1338 riscv-013_reg.c:40 riscv013_reg_get(): [riscv.cpu1] Read 0x0000000000000104 from t0 (valid=1).
Debug: 2547 1338 riscv_reg.c:979 riscv_reg_get(): [riscv.cpu1] Reading t1 from target
Debug: 2548 1338 riscv-013.c:5109 riscv013_get_register(): [riscv.cpu1] reading register t1
Debug: 2549 1338 riscv-013.c:1633 register_read_direct(): [riscv.cpu1] Reading t1
Debug: 2550 1338 riscv-013.c:745 riscv013_execute_abstract_command(): [riscv.cpu1] access register=0x321006 {regno=0x1006 write=arg0 transfer=enabled postexec=disabled aarpostincrement=disabled aarsize=64bit}
Debug: 2551 1338 batch.c:291 riscv_batch_run_from(): [riscv.cpu1] Running batch of scans [0, 3)
Debug: 2552 1339 batch.c:255 log_batch(): 40b w 00321006 @17 -> + 00000000 @00; 4i
Debug: 2553 1339 batch.c:199 log_dmi_decoded(): write: command=0x321006 {control=0x321006}
Debug: 2554 1339 batch.c:255 log_batch(): 40b r 00000000 @16 -> + 00321006 @17; 0i
Debug: 2555 1339 batch.c:255 log_batch(): 40b - 00000000 @00 -> + 02000002 @16; 0i
Debug: 2556 1339 batch.c:199 log_dmi_decoded(): read: abstractcs=0x2000002 {datacount=2 progbufsize=2}
Debug: 2557 1339 riscv-013.c:680 abstract_cmd_batch_check_and_clear_cmderr(): [riscv.cpu1] abstractcs=0x2000002 {datacount=2 relaxedpriv=full_checks busy=ready progbufsize=2 cmderr=none}
Debug: 2558 1339 batch.c:291 riscv_batch_run_from(): [riscv.cpu1] Running batch of scans [0, 3)
Debug: 2559 1339 batch.c:255 log_batch(): 40b r 00000000 @04 -> + 00000000 @00; 0i
Debug: 2560 1339 batch.c:255 log_batch(): 40b r 00000000 @05 -> + 00000105 @04; 0i
Debug: 2561 1339 batch.c:199 log_dmi_decoded(): read: 
Debug: 2562 1339 batch.c:255 log_batch(): 40b - 00000000 @00 -> + 00000000 @05; 0i
Debug: 2563 1339 batch.c:199 log_dmi_decoded(): read: 
Debug: 2564 1339 riscv-013.c:1652 register_read_direct(): [riscv.cpu1] t1 = 0x105
Debug: 2565 1339 riscv_reg.c:988 riscv_reg_get(): [riscv.cpu1] Read t1: 0x105
Debug: 2566 1339 riscv-013_reg.c:40 riscv013_reg_get(): [riscv.cpu1] Read 0x0000000000000105 from t1 (valid=1).
Debug: 2567 1339 riscv_reg.c:979 riscv_reg_get(): [riscv.cpu1] Reading t2 from target
Debug: 2568 1339 riscv-013.c:5109 riscv013_get_register(): [riscv.cpu1] reading register t2
Debug: 2569 1339 riscv-013.c:1633 register_read_direct(): [riscv.cpu1] Reading t2
Debug: 2570 1339 riscv-013.c:745 riscv013_execute_abstract_command(): [riscv.cpu1] access register=0x321007 {regno=0x1007 write=arg0 transfer=enabled postexec=disabled aarpostincrement=disabled aarsize=64bit}
Debug: 2571 1339 batch.c:291 riscv_batch_run_from(): [riscv.cpu1] Running batch of scans [0, 3)
Debug: 2572 1340 batch.c:255 log_batch(): 40b w 00321007 @17 -> + 00000000 @00; 4i
Debug: 2573 1340 batch.c:199 log_dmi_decoded(): write: command=0x321007 {control=0x321007}
Debug: 2574 1340 batch.c:255 log_batch(): 40b r 00000000 @16 -> + 00321007 @17; 0i
Debug: 2575 1340 batch.c:255 log_batch(): 40b - 00000000 @00 -> + 02000002 @16; 0i
Debug: 2576 1340 batch.c:199 log_dmi_decoded(): read: abstractcs=0x2000002 {datacount=2 progbufsize=2}
Debug: 2577 1340 riscv-013.c:680 abstract_cmd_batch_check_and_clear_cmderr(): [riscv.cpu1] abstractcs=0x2000002 {datacount=2 relaxedpriv=full_checks busy=ready progbufsize=2 cmderr=none}
Debug: 2578 1340 batch.c:291 riscv_batch_run_from(): [riscv.cpu1] Running batch of scans [0, 3)
Debug: 2579 1340 batch.c:255 log_batch(): 40b r 00000000 @04 -> + 00000000 @00; 0i
Debug: 2580 1340 batch.c:255 log_batch(): 40b r 00000000 @05 -> + 00000106 @04; 0i
Debug: 2581 1340 batch.c:199 log_dmi_decoded(): read: 
Debug: 2582 1340 batch.c:255 log_batch(): 40b - 00000000 @00 -> + 00000000 @05; 0i
Debug: 2583 1340 batch.c:199 log_dmi_decoded(): read: 
Debug: 2584 1340 riscv-013.c:1652 register_read_direct(): [riscv.cpu1] t2 = 0x106
Debug: 2585 1340 riscv_reg.c:988 riscv_reg_get(): [riscv.cpu1] Read t2: 0x106
Debug: 2586 1340 riscv-013_reg.c:40 riscv013_reg_get(): [riscv.cpu1] Read 0x0000000000000106 from t2 (valid=1).
Debug: 2587 1340 riscv_reg.c:979 riscv_reg_get(): [riscv.cpu1] Reading fp from target
Debug: 2588 1340 riscv-013.c:5109 riscv013_get_register(): [riscv.cpu1] reading register fp
Debug: 2589 1340 riscv-013.c:1633 register_read_direct(): [riscv.cpu1] Reading fp
Debug: 2590 1340 riscv-013.c:745 riscv013_execute_abstract_command(): [riscv.cpu1] access register=0x321008 {regno=0x1008 write=arg0 transfer=enabled postexec=disabled aarpostincrement=disabled aarsize=64bit}
Debug: 2591 1340 batch.c:291 riscv_batch_run_from(): [riscv.cpu1] Running batch of scans [0, 3)
Debug: 2592 1341 batch.c:255 log_batch(): 40b w 00321008 @17 -> + 00000000 @00; 4i
Debug: 2593 1341 batch.c:199 log_dmi_decoded(): write: command=0x321008 {control=0x321008}
Debug: 2594 1341 batch.c:255 log_batch(): 40b r 00000000 @16 -> + 00321008 @17; 0i
Debug: 2595 1341 batch.c:255 log_batch(): 40b - 00000000 @00 -> + 02000002 @16; 0i
Debug: 2596 1341 batch.c:199 log_dmi_decoded(): read: abstractcs=0x2000002 {datacount=2 progbufsize=2}
Debug: 2597 1341 riscv-013.c:680 abstract_cmd_batch_check_and_clear_cmderr(): [riscv.cpu1] abstractcs=0x2000002 {datacount=2 relaxedpriv=full_checks busy=ready progbufsize=2 cmderr=none}
Debug: 2598 1341 batch.c:291 riscv_batch_run_from(): [riscv.cpu1] Running batch of scans [0, 3)
Debug: 2599 1342 batch.c:255 log_batch(): 40b r 00000000 @04 -> + 00000000 @00; 0i
Debug: 2600 1342 batch.c:255 log_batch(): 40b r 00000000 @05 -> + 00000107 @04; 0i
Debug: 2601 1342 batch.c:199 log_dmi_decoded(): read: 
Debug: 2602 1342 batch.c:255 log_batch(): 40b - 00000000 @00 -> + 00000000 @05; 0i
Debug: 2603 1342 batch.c:199 log_dmi_decoded(): read: 
Debug: 2604 1342 riscv-013.c:1652 register_read_direct(): [riscv.cpu1] fp = 0x107
Debug: 2605 1342 riscv_reg.c:988 riscv_reg_get(): [riscv.cpu1] Read fp: 0x107
Debug: 2606 1342 riscv-013_reg.c:40 riscv013_reg_get(): [riscv.cpu1] Read 0x0000000000000107 from fp (valid=1).
Debug: 2607 1342 riscv_reg.c:979 riscv_reg_get(): [riscv.cpu1] Reading s1 from target
Debug: 2608 1342 riscv-013.c:5109 riscv013_get_register(): [riscv.cpu1] reading register s1
Debug: 2609 1342 riscv-013.c:1633 register_read_direct(): [riscv.cpu1] Reading s1
Debug: 2610 1342 riscv-013.c:745 riscv013_execute_abstract_command(): [riscv.cpu1] access register=0x321009 {regno=0x1009 write=arg0 transfer=enabled postexec=disabled aarpostincrement=disabled aarsize=64bit}
Debug: 2611 1342 batch.c:291 riscv_batch_run_from(): [riscv.cpu1] Running batch of scans [0, 3)
Debug: 2612 1343 batch.c:255 log_batch(): 40b w 00321009 @17 -> + 00000000 @00; 4i
Debug: 2613 1343 batch.c:199 log_dmi_decoded(): write: command=0x321009 {control=0x321009}
Debug: 2614 1343 batch.c:255 log_batch(): 40b r 00000000 @16 -> + 00321009 @17; 0i
Debug: 2615 1343 batch.c:255 log_batch(): 40b - 00000000 @00 -> + 02000002 @16; 0i
Debug: 2616 1343 batch.c:199 log_dmi_decoded(): read: abstractcs=0x2000002 {datacount=2 progbufsize=2}
Debug: 2617 1343 riscv-013.c:680 abstract_cmd_batch_check_and_clear_cmderr(): [riscv.cpu1] abstractcs=0x2000002 {datacount=2 relaxedpriv=full_checks busy=ready progbufsize=2 cmderr=none}
Debug: 2618 1343 batch.c:291 riscv_batch_run_from(): [riscv.cpu1] Running batch of scans [0, 3)
Debug: 2619 1344 batch.c:255 log_batch(): 40b r 00000000 @04 -> + 00000000 @00; 0i
Debug: 2620 1344 batch.c:255 log_batch(): 40b r 00000000 @05 -> + 00000108 @04; 0i
Debug: 2621 1344 batch.c:199 log_dmi_decoded(): read: 
Debug: 2622 1344 batch.c:255 log_batch(): 40b - 00000000 @00 -> + 00000000 @05; 0i
Debug: 2623 1344 batch.c:199 log_dmi_decoded(): read: 
Debug: 2624 1344 riscv-013.c:1652 register_read_direct(): [riscv.cpu1] s1 = 0x108
Debug: 2625 1344 riscv_reg.c:988 riscv_reg_get(): [riscv.cpu1] Read s1: 0x108
Debug: 2626 1344 riscv-013_reg.c:40 riscv013_reg_get(): [riscv.cpu1] Read 0x0000000000000108 from s1 (valid=1).
Debug: 2627 1344 riscv_reg.c:979 riscv_reg_get(): [riscv.cpu1] Reading a0 from target
Debug: 2628 1344 riscv-013.c:5109 riscv013_get_register(): [riscv.cpu1] reading register a0
Debug: 2629 1344 riscv-013.c:1633 register_read_direct(): [riscv.cpu1] Reading a0
Debug: 2630 1344 riscv-013.c:745 riscv013_execute_abstract_command(): [riscv.cpu1] access register=0x32100a {regno=0x100a write=arg0 transfer=enabled postexec=disabled aarpostincrement=disabled aarsize=64bit}
Debug: 2631 1344 batch.c:291 riscv_batch_run_from(): [riscv.cpu1] Running batch of scans [0, 3)
Debug: 2632 1344 batch.c:255 log_batch(): 40b w 0032100a @17 -> + 00000000 @00; 4i
Debug: 2633 1344 batch.c:199 log_dmi_decoded(): write: command=0x32100a {control=0x32100a}
Debug: 2634 1344 batch.c:255 log_batch(): 40b r 00000000 @16 -> + 0032100a @17; 0i
Debug: 2635 1344 batch.c:255 log_batch(): 40b - 00000000 @00 -> + 02000002 @16; 0i
Debug: 2636 1344 batch.c:199 log_dmi_decoded(): read: abstractcs=0x2000002 {datacount=2 progbufsize=2}
Debug: 2637 1344 riscv-013.c:680 abstract_cmd_batch_check_and_clear_cmderr(): [riscv.cpu1] abstractcs=0x2000002 {datacount=2 relaxedpriv=full_checks busy=ready progbufsize=2 cmderr=none}
Debug: 2638 1344 batch.c:291 riscv_batch_run_from(): [riscv.cpu1] Running batch of scans [0, 3)
Debug: 2639 1345 batch.c:255 log_batch(): 40b r 00000000 @04 -> + 00000000 @00; 0i
Debug: 2640 1345 batch.c:255 log_batch(): 40b r 00000000 @05 -> + 00000109 @04; 0i
Debug: 2641 1345 batch.c:199 log_dmi_decoded(): read: 
Debug: 2642 1345 batch.c:255 log_batch(): 40b - 00000000 @00 -> + 00000000 @05; 0i
Debug: 2643 1345 batch.c:199 log_dmi_decoded(): read: 
Debug: 2644 1345 riscv-013.c:1652 register_read_direct(): [riscv.cpu1] a0 = 0x109
Debug: 2645 1345 riscv_reg.c:988 riscv_reg_get(): [riscv.cpu1] Read a0: 0x109
Debug: 2646 1345 riscv-013_reg.c:40 riscv013_reg_get(): [riscv.cpu1] Read 0x0000000000000109 from a0 (valid=1).
Debug: 2647 1345 riscv_reg.c:979 riscv_reg_get(): [riscv.cpu1] Reading a1 from target
Debug: 2648 1345 riscv-013.c:5109 riscv013_get_register(): [riscv.cpu1] reading register a1
Debug: 2649 1345 riscv-013.c:1633 register_read_direct(): [riscv.cpu1] Reading a1
Debug: 2650 1345 riscv-013.c:745 riscv013_execute_abstract_command(): [riscv.cpu1] access register=0x32100b {regno=0x100b write=arg0 transfer=enabled postexec=disabled aarpostincrement=disabled aarsize=64bit}
Debug: 2651 1345 batch.c:291 riscv_batch_run_from(): [riscv.cpu1] Running batch of scans [0, 3)
Debug: 2652 1345 batch.c:255 log_batch(): 40b w 0032100b @17 -> + 00000000 @00; 4i
Debug: 2653 1345 batch.c:199 log_dmi_decoded(): write: command=0x32100b {control=0x32100b}
Debug: 2654 1345 batch.c:255 log_batch(): 40b r 00000000 @16 -> + 0032100b @17; 0i
Debug: 2655 1345 batch.c:255 log_batch(): 40b - 00000000 @00 -> + 02000002 @16; 0i
Debug: 2656 1345 batch.c:199 log_dmi_decoded(): read: abstractcs=0x2000002 {datacount=2 progbufsize=2}
Debug: 2657 1345 riscv-013.c:680 abstract_cmd_batch_check_and_clear_cmderr(): [riscv.cpu1] abstractcs=0x2000002 {datacount=2 relaxedpriv=full_checks busy=ready progbufsize=2 cmderr=none}
Debug: 2658 1345 batch.c:291 riscv_batch_run_from(): [riscv.cpu1] Running batch of scans [0, 3)
Debug: 2659 1346 batch.c:255 log_batch(): 40b r 00000000 @04 -> + 00000000 @00; 0i
Debug: 2660 1346 batch.c:255 log_batch(): 40b r 00000000 @05 -> + 0000010a @04; 0i
Debug: 2661 1346 batch.c:199 log_dmi_decoded(): read: 
Debug: 2662 1346 batch.c:255 log_batch(): 40b - 00000000 @00 -> + 00000000 @05; 0i
Debug: 2663 1346 batch.c:199 log_dmi_decoded(): read: 
Debug: 2664 1346 riscv-013.c:1652 register_read_direct(): [riscv.cpu1] a1 = 0x10a
Debug: 2665 1346 riscv_reg.c:988 riscv_reg_get(): [riscv.cpu1] Read a1: 0x10a
Debug: 2666 1346 riscv-013_reg.c:40 riscv013_reg_get(): [riscv.cpu1] Read 0x000000000000010a from a1 (valid=1).
Debug: 2667 1346 riscv_reg.c:979 riscv_reg_get(): [riscv.cpu1] Reading a2 from target
Debug: 2668 1346 riscv-013.c:5109 riscv013_get_register(): [riscv.cpu1] reading register a2
Debug: 2669 1346 riscv-013.c:1633 register_read_direct(): [riscv.cpu1] Reading a2
Debug: 2670 1346 riscv-013.c:745 riscv013_execute_abstract_command(): [riscv.cpu1] access register=0x32100c {regno=0x100c write=arg0 transfer=enabled postexec=disabled aarpostincrement=disabled aarsize=64bit}
Debug: 2671 1346 batch.c:291 riscv_batch_run_from(): [riscv.cpu1] Running batch of scans [0, 3)
Debug: 2672 1347 batch.c:255 log_batch(): 40b w 0032100c @17 -> + 00000000 @00; 4i
Debug: 2673 1347 batch.c:199 log_dmi_decoded(): write: command=0x32100c {control=0x32100c}
Debug: 2674 1347 batch.c:255 log_batch(): 40b r 00000000 @16 -> + 0032100c @17; 0i
Debug: 2675 1347 batch.c:255 log_batch(): 40b - 00000000 @00 -> + 02000002 @16; 0i
Debug: 2676 1347 batch.c:199 log_dmi_decoded(): read: abstractcs=0x2000002 {datacount=2 progbufsize=2}
Debug: 2677 1347 riscv-013.c:680 abstract_cmd_batch_check_and_clear_cmderr(): [riscv.cpu1] abstractcs=0x2000002 {datacount=2 relaxedpriv=full_checks busy=ready progbufsize=2 cmderr=none}
Debug: 2678 1347 batch.c:291 riscv_batch_run_from(): [riscv.cpu1] Running batch of scans [0, 3)
Debug: 2679 1347 batch.c:255 log_batch(): 40b r 00000000 @04 -> + 00000000 @00; 0i
Debug: 2680 1347 batch.c:255 log_batch(): 40b r 00000000 @05 -> + 0000010b @04; 0i
Debug: 2681 1347 batch.c:199 log_dmi_decoded(): read: 
Debug: 2682 1347 batch.c:255 log_batch(): 40b - 00000000 @00 -> + 00000000 @05; 0i
Debug: 2683 1347 batch.c:199 log_dmi_decoded(): read: 
Debug: 2684 1347 riscv-013.c:1652 register_read_direct(): [riscv.cpu1] a2 = 0x10b
Debug: 2685 1347 riscv_reg.c:988 riscv_reg_get(): [riscv.cpu1] Read a2: 0x10b
Debug: 2686 1347 riscv-013_reg.c:40 riscv013_reg_get(): [riscv.cpu1] Read 0x000000000000010b from a2 (valid=1).
Debug: 2687 1347 riscv_reg.c:979 riscv_reg_get(): [riscv.cpu1] Reading a3 from target
Debug: 2688 1347 riscv-013.c:5109 riscv013_get_register(): [riscv.cpu1] reading register a3
Debug: 2689 1347 riscv-013.c:1633 register_read_direct(): [riscv.cpu1] Reading a3
Debug: 2690 1347 riscv-013.c:745 riscv013_execute_abstract_command(): [riscv.cpu1] access register=0x32100d {regno=0x100d write=arg0 transfer=enabled postexec=disabled aarpostincrement=disabled aarsize=64bit}
Debug: 2691 1347 batch.c:291 riscv_batch_run_from(): [riscv.cpu1] Running batch of scans [0, 3)
Debug: 2692 1348 batch.c:255 log_batch(): 40b w 0032100d @17 -> + 00000000 @00; 4i
Debug: 2693 1348 batch.c:199 log_dmi_decoded(): write: command=0x32100d {control=0x32100d}
Debug: 2694 1348 batch.c:255 log_batch(): 40b r 00000000 @16 -> + 0032100d @17; 0i
Debug: 2695 1348 batch.c:255 log_batch(): 40b - 00000000 @00 -> + 02000002 @16; 0i
Debug: 2696 1348 batch.c:199 log_dmi_decoded(): read: abstractcs=0x2000002 {datacount=2 progbufsize=2}
Debug: 2697 1348 riscv-013.c:680 abstract_cmd_batch_check_and_clear_cmderr(): [riscv.cpu1] abstractcs=0x2000002 {datacount=2 relaxedpriv=full_checks busy=ready progbufsize=2 cmderr=none}
Debug: 2698 1348 batch.c:291 riscv_batch_run_from(): [riscv.cpu1] Running batch of scans [0, 3)
Debug: 2699 1349 batch.c:255 log_batch(): 40b r 00000000 @04 -> + 00000000 @00; 0i
Debug: 2700 1349 batch.c:255 log_batch(): 40b r 00000000 @05 -> + 0000010c @04; 0i
Debug: 2701 1349 batch.c:199 log_dmi_decoded(): read: 
Debug: 2702 1349 batch.c:255 log_batch(): 40b - 00000000 @00 -> + 00000000 @05; 0i
Debug: 2703 1349 batch.c:199 log_dmi_decoded(): read: 
Debug: 2704 1349 riscv-013.c:1652 register_read_direct(): [riscv.cpu1] a3 = 0x10c
Debug: 2705 1349 riscv_reg.c:988 riscv_reg_get(): [riscv.cpu1] Read a3: 0x10c
Debug: 2706 1349 riscv-013_reg.c:40 riscv013_reg_get(): [riscv.cpu1] Read 0x000000000000010c from a3 (valid=1).
Debug: 2707 1349 riscv_reg.c:979 riscv_reg_get(): [riscv.cpu1] Reading a4 from target
Debug: 2708 1349 riscv-013.c:5109 riscv013_get_register(): [riscv.cpu1] reading register a4
Debug: 2709 1349 riscv-013.c:1633 register_read_direct(): [riscv.cpu1] Reading a4
Debug: 2710 1349 riscv-013.c:745 riscv013_execute_abstract_command(): [riscv.cpu1] access register=0x32100e {regno=0x100e write=arg0 transfer=enabled postexec=disabled aarpostincrement=disabled aarsize=64bit}
Debug: 2711 1349 batch.c:291 riscv_batch_run_from(): [riscv.cpu1] Running batch of scans [0, 3)
Debug: 2712 1350 batch.c:255 log_batch(): 40b w 0032100e @17 -> + 00000000 @00; 4i
Debug: 2713 1350 batch.c:199 log_dmi_decoded(): write: command=0x32100e {control=0x32100e}
Debug: 2714 1350 batch.c:255 log_batch(): 40b r 00000000 @16 -> + 0032100e @17; 0i
Debug: 2715 1350 batch.c:255 log_batch(): 40b - 00000000 @00 -> + 02000002 @16; 0i
Debug: 2716 1350 batch.c:199 log_dmi_decoded(): read: abstractcs=0x2000002 {datacount=2 progbufsize=2}
Debug: 2717 1350 riscv-013.c:680 abstract_cmd_batch_check_and_clear_cmderr(): [riscv.cpu1] abstractcs=0x2000002 {datacount=2 relaxedpriv=full_checks busy=ready progbufsize=2 cmderr=none}
Debug: 2718 1350 batch.c:291 riscv_batch_run_from(): [riscv.cpu1] Running batch of scans [0, 3)
Debug: 2719 1350 batch.c:255 log_batch(): 40b r 00000000 @04 -> + 00000000 @00; 0i
Debug: 2720 1350 batch.c:255 log_batch(): 40b r 00000000 @05 -> + 0000010d @04; 0i
Debug: 2721 1350 batch.c:199 log_dmi_decoded(): read: 
Debug: 2722 1350 batch.c:255 log_batch(): 40b - 00000000 @00 -> + 00000000 @05; 0i
Debug: 2723 1350 batch.c:199 log_dmi_decoded(): read: 
Debug: 2724 1350 riscv-013.c:1652 register_read_direct(): [riscv.cpu1] a4 = 0x10d
Debug: 2725 1350 riscv_reg.c:988 riscv_reg_get(): [riscv.cpu1] Read a4: 0x10d
Debug: 2726 1350 riscv-013_reg.c:40 riscv013_reg_get(): [riscv.cpu1] Read 0x000000000000010d from a4 (valid=1).
Debug: 2727 1350 riscv_reg.c:979 riscv_reg_get(): [riscv.cpu1] Reading a5 from target
Debug: 2728 1350 riscv-013.c:5109 riscv013_get_register(): [riscv.cpu1] reading register a5
Debug: 2729 1350 riscv-013.c:1633 register_read_direct(): [riscv.cpu1] Reading a5
Debug: 2730 1350 riscv-013.c:745 riscv013_execute_abstract_command(): [riscv.cpu1] access register=0x32100f {regno=0x100f write=arg0 transfer=enabled postexec=disabled aarpostincrement=disabled aarsize=64bit}
Debug: 2731 1350 batch.c:291 riscv_batch_run_from(): [riscv.cpu1] Running batch of scans [0, 3)
Debug: 2732 1351 batch.c:255 log_batch(): 40b w 0032100f @17 -> + 00000000 @00; 4i
Debug: 2733 1351 batch.c:199 log_dmi_decoded(): write: command=0x32100f {control=0x32100f}
Debug: 2734 1351 batch.c:255 log_batch(): 40b r 00000000 @16 -> + 0032100f @17; 0i
Debug: 2735 1351 batch.c:255 log_batch(): 40b - 00000000 @00 -> + 02000002 @16; 0i
Debug: 2736 1351 batch.c:199 log_dmi_decoded(): read: abstractcs=0x2000002 {datacount=2 progbufsize=2}
Debug: 2737 1351 riscv-013.c:680 abstract_cmd_batch_check_and_clear_cmderr(): [riscv.cpu1] abstractcs=0x2000002 {datacount=2 relaxedpriv=full_checks busy=ready progbufsize=2 cmderr=none}
Debug: 2738 1351 batch.c:291 riscv_batch_run_from(): [riscv.cpu1] Running batch of scans [0, 3)
Debug: 2739 1351 batch.c:255 log_batch(): 40b r 00000000 @04 -> + 00000000 @00; 0i
Debug: 2740 1351 batch.c:255 log_batch(): 40b r 00000000 @05 -> + 0000010e @04; 0i
Debug: 2741 1351 batch.c:199 log_dmi_decoded(): read: 
Debug: 2742 1351 batch.c:255 log_batch(): 40b - 00000000 @00 -> + 00000000 @05; 0i
Debug: 2743 1351 batch.c:199 log_dmi_decoded(): read: 
Debug: 2744 1351 riscv-013.c:1652 register_read_direct(): [riscv.cpu1] a5 = 0x10e
Debug: 2745 1351 riscv_reg.c:988 riscv_reg_get(): [riscv.cpu1] Read a5: 0x10e
Debug: 2746 1351 riscv-013_reg.c:40 riscv013_reg_get(): [riscv.cpu1] Read 0x000000000000010e from a5 (valid=1).
Debug: 2747 1351 riscv_reg.c:979 riscv_reg_get(): [riscv.cpu1] Reading a6 from target
Debug: 2748 1351 riscv-013.c:5109 riscv013_get_register(): [riscv.cpu1] reading register a6
Debug: 2749 1351 riscv-013.c:1633 register_read_direct(): [riscv.cpu1] Reading a6
Debug: 2750 1351 riscv-013.c:745 riscv013_execute_abstract_command(): [riscv.cpu1] access register=0x321010 {regno=0x1010 write=arg0 transfer=enabled postexec=disabled aarpostincrement=disabled aarsize=64bit}
Debug: 2751 1351 batch.c:291 riscv_batch_run_from(): [riscv.cpu1] Running batch of scans [0, 3)
Debug: 2752 1352 batch.c:255 log_batch(): 40b w 00321010 @17 -> + 00000000 @00; 4i
Debug: 2753 1352 batch.c:199 log_dmi_decoded(): write: command=0x321010 {control=0x321010}
Debug: 2754 1352 batch.c:255 log_batch(): 40b r 00000000 @16 -> + 00321010 @17; 0i
Debug: 2755 1352 batch.c:255 log_batch(): 40b - 00000000 @00 -> + 02000002 @16; 0i
Debug: 2756 1352 batch.c:199 log_dmi_decoded(): read: abstractcs=0x2000002 {datacount=2 progbufsize=2}
Debug: 2757 1352 riscv-013.c:680 abstract_cmd_batch_check_and_clear_cmderr(): [riscv.cpu1] abstractcs=0x2000002 {datacount=2 relaxedpriv=full_checks busy=ready progbufsize=2 cmderr=none}
Debug: 2758 1352 batch.c:291 riscv_batch_run_from(): [riscv.cpu1] Running batch of scans [0, 3)
Debug: 2759 1353 batch.c:255 log_batch(): 40b r 00000000 @04 -> + 00000000 @00; 0i
Debug: 2760 1353 batch.c:255 log_batch(): 40b r 00000000 @05 -> + 0000010f @04; 0i
Debug: 2761 1353 batch.c:199 log_dmi_decoded(): read: 
Debug: 2762 1353 batch.c:255 log_batch(): 40b - 00000000 @00 -> + 00000000 @05; 0i
Debug: 2763 1353 batch.c:199 log_dmi_decoded(): read: 
Debug: 2764 1353 riscv-013.c:1652 register_read_direct(): [riscv.cpu1] a6 = 0x10f
Debug: 2765 1353 riscv_reg.c:988 riscv_reg_get(): [riscv.cpu1] Read a6: 0x10f
Debug: 2766 1353 riscv-013_reg.c:40 riscv013_reg_get(): [riscv.cpu1] Read 0x000000000000010f from a6 (valid=1).
Debug: 2767 1353 riscv_reg.c:979 riscv_reg_get(): [riscv.cpu1] Reading a7 from target
Debug: 2768 1353 riscv-013.c:5109 riscv013_get_register(): [riscv.cpu1] reading register a7
Debug: 2769 1353 riscv-013.c:1633 register_read_direct(): [riscv.cpu1] Reading a7
Debug: 2770 1353 riscv-013.c:745 riscv013_execute_abstract_command(): [riscv.cpu1] access register=0x321011 {regno=0x1011 write=arg0 transfer=enabled postexec=disabled aarpostincrement=disabled aarsize=64bit}
Debug: 2771 1353 batch.c:291 riscv_batch_run_from(): [riscv.cpu1] Running batch of scans [0, 3)
Debug: 2772 1353 batch.c:255 log_batch(): 40b w 00321011 @17 -> + 00000000 @00; 4i
Debug: 2773 1353 batch.c:199 log_dmi_decoded(): write: command=0x321011 {control=0x321011}
Debug: 2774 1353 batch.c:255 log_batch(): 40b r 00000000 @16 -> + 00321011 @17; 0i
Debug: 2775 1353 batch.c:255 log_batch(): 40b - 00000000 @00 -> + 02000002 @16; 0i
Debug: 2776 1353 batch.c:199 log_dmi_decoded(): read: abstractcs=0x2000002 {datacount=2 progbufsize=2}
Debug: 2777 1353 riscv-013.c:680 abstract_cmd_batch_check_and_clear_cmderr(): [riscv.cpu1] abstractcs=0x2000002 {datacount=2 relaxedpriv=full_checks busy=ready progbufsize=2 cmderr=none}
Debug: 2778 1353 batch.c:291 riscv_batch_run_from(): [riscv.cpu1] Running batch of scans [0, 3)
Debug: 2779 1354 batch.c:255 log_batch(): 40b r 00000000 @04 -> + 00000000 @00; 0i
Debug: 2780 1354 batch.c:255 log_batch(): 40b r 00000000 @05 -> + 00000110 @04; 0i
Debug: 2781 1354 batch.c:199 log_dmi_decoded(): read: 
Debug: 2782 1354 batch.c:255 log_batch(): 40b - 00000000 @00 -> + 00000000 @05; 0i
Debug: 2783 1354 batch.c:199 log_dmi_decoded(): read: 
Debug: 2784 1354 riscv-013.c:1652 register_read_direct(): [riscv.cpu1] a7 = 0x110
Debug: 2785 1354 riscv_reg.c:988 riscv_reg_get(): [riscv.cpu1] Read a7: 0x110
Debug: 2786 1354 riscv-013_reg.c:40 riscv013_reg_get(): [riscv.cpu1] Read 0x0000000000000110 from a7 (valid=1).
Debug: 2787 1354 riscv_reg.c:979 riscv_reg_get(): [riscv.cpu1] Reading s2 from target
Debug: 2788 1354 riscv-013.c:5109 riscv013_get_register(): [riscv.cpu1] reading register s2
Debug: 2789 1354 riscv-013.c:1633 register_read_direct(): [riscv.cpu1] Reading s2
Debug: 2790 1354 riscv-013.c:745 riscv013_execute_abstract_command(): [riscv.cpu1] access register=0x321012 {regno=0x1012 write=arg0 transfer=enabled postexec=disabled aarpostincrement=disabled aarsize=64bit}
Debug: 2791 1354 batch.c:291 riscv_batch_run_from(): [riscv.cpu1] Running batch of scans [0, 3)
Debug: 2792 1355 batch.c:255 log_batch(): 40b w 00321012 @17 -> + 00000000 @00; 4i
Debug: 2793 1355 batch.c:199 log_dmi_decoded(): write: command=0x321012 {control=0x321012}
Debug: 2794 1355 batch.c:255 log_batch(): 40b r 00000000 @16 -> + 00321012 @17; 0i
Debug: 2795 1355 batch.c:255 log_batch(): 40b - 00000000 @00 -> + 02000002 @16; 0i
Debug: 2796 1355 batch.c:199 log_dmi_decoded(): read: abstractcs=0x2000002 {datacount=2 progbufsize=2}
Debug: 2797 1355 riscv-013.c:680 abstract_cmd_batch_check_and_clear_cmderr(): [riscv.cpu1] abstractcs=0x2000002 {datacount=2 relaxedpriv=full_checks busy=ready progbufsize=2 cmderr=none}
Debug: 2798 1355 batch.c:291 riscv_batch_run_from(): [riscv.cpu1] Running batch of scans [0, 3)
Debug: 2799 1356 batch.c:255 log_batch(): 40b r 00000000 @04 -> + 00000000 @00; 0i
Debug: 2800 1356 batch.c:255 log_batch(): 40b r 00000000 @05 -> + 00000111 @04; 0i
Debug: 2801 1356 batch.c:199 log_dmi_decoded(): read: 
Debug: 2802 1356 batch.c:255 log_batch(): 40b - 00000000 @00 -> + 00000000 @05; 0i
Debug: 2803 1356 batch.c:199 log_dmi_decoded(): read: 
Debug: 2804 1356 riscv-013.c:1652 register_read_direct(): [riscv.cpu1] s2 = 0x111
Debug: 2805 1356 riscv_reg.c:988 riscv_reg_get(): [riscv.cpu1] Read s2: 0x111
Debug: 2806 1356 riscv-013_reg.c:40 riscv013_reg_get(): [riscv.cpu1] Read 0x0000000000000111 from s2 (valid=1).
Debug: 2807 1356 riscv_reg.c:979 riscv_reg_get(): [riscv.cpu1] Reading s3 from target
Debug: 2808 1356 riscv-013.c:5109 riscv013_get_register(): [riscv.cpu1] reading register s3
Debug: 2809 1356 riscv-013.c:1633 register_read_direct(): [riscv.cpu1] Reading s3
Debug: 2810 1356 riscv-013.c:745 riscv013_execute_abstract_command(): [riscv.cpu1] access register=0x321013 {regno=0x1013 write=arg0 transfer=enabled postexec=disabled aarpostincrement=disabled aarsize=64bit}
Debug: 2811 1356 batch.c:291 riscv_batch_run_from(): [riscv.cpu1] Running batch of scans [0, 3)
Debug: 2812 1356 batch.c:255 log_batch(): 40b w 00321013 @17 -> + 00000000 @00; 4i
Debug: 2813 1356 batch.c:199 log_dmi_decoded(): write: command=0x321013 {control=0x321013}
Debug: 2814 1356 batch.c:255 log_batch(): 40b r 00000000 @16 -> + 00321013 @17; 0i
Debug: 2815 1356 batch.c:255 log_batch(): 40b - 00000000 @00 -> + 02000002 @16; 0i
Debug: 2816 1356 batch.c:199 log_dmi_decoded(): read: abstractcs=0x2000002 {datacount=2 progbufsize=2}
Debug: 2817 1356 riscv-013.c:680 abstract_cmd_batch_check_and_clear_cmderr(): [riscv.cpu1] abstractcs=0x2000002 {datacount=2 relaxedpriv=full_checks busy=ready progbufsize=2 cmderr=none}
Debug: 2818 1356 batch.c:291 riscv_batch_run_from(): [riscv.cpu1] Running batch of scans [0, 3)
Debug: 2819 1362 batch.c:255 log_batch(): 40b r 00000000 @04 -> + 00000000 @00; 0i
Debug: 2820 1362 batch.c:255 log_batch(): 40b r 00000000 @05 -> + 00000112 @04; 0i
Debug: 2821 1362 batch.c:199 log_dmi_decoded(): read: 
Debug: 2822 1362 batch.c:255 log_batch(): 40b - 00000000 @00 -> + 00000000 @05; 0i
Debug: 2823 1362 batch.c:199 log_dmi_decoded(): read: 
Debug: 2824 1362 riscv-013.c:1652 register_read_direct(): [riscv.cpu1] s3 = 0x112
Debug: 2825 1362 riscv_reg.c:988 riscv_reg_get(): [riscv.cpu1] Read s3: 0x112
Debug: 2826 1362 riscv-013_reg.c:40 riscv013_reg_get(): [riscv.cpu1] Read 0x0000000000000112 from s3 (valid=1).
Debug: 2827 1362 riscv_reg.c:979 riscv_reg_get(): [riscv.cpu1] Reading s4 from target
Debug: 2828 1362 riscv-013.c:5109 riscv013_get_register(): [riscv.cpu1] reading register s4
Debug: 2829 1362 riscv-013.c:1633 register_read_direct(): [riscv.cpu1] Reading s4
Debug: 2830 1362 riscv-013.c:745 riscv013_execute_abstract_command(): [riscv.cpu1] access register=0x321014 {regno=0x1014 write=arg0 transfer=enabled postexec=disabled aarpostincrement=disabled aarsize=64bit}
Debug: 2831 1362 batch.c:291 riscv_batch_run_from(): [riscv.cpu1] Running batch of scans [0, 3)
Debug: 2832 1366 batch.c:255 log_batch(): 40b w 00321014 @17 -> + 00000000 @00; 4i
Debug: 2833 1366 batch.c:199 log_dmi_decoded(): write: command=0x321014 {control=0x321014}
Debug: 2834 1366 batch.c:255 log_batch(): 40b r 00000000 @16 -> + 00321014 @17; 0i
Debug: 2835 1366 batch.c:255 log_batch(): 40b - 00000000 @00 -> + 02000002 @16; 0i
Debug: 2836 1366 batch.c:199 log_dmi_decoded(): read: abstractcs=0x2000002 {datacount=2 progbufsize=2}
Debug: 2837 1366 riscv-013.c:680 abstract_cmd_batch_check_and_clear_cmderr(): [riscv.cpu1] abstractcs=0x2000002 {datacount=2 relaxedpriv=full_checks busy=ready progbufsize=2 cmderr=none}
Debug: 2838 1366 batch.c:291 riscv_batch_run_from(): [riscv.cpu1] Running batch of scans [0, 3)
Debug: 2839 1370 batch.c:255 log_batch(): 40b r 00000000 @04 -> + 00000000 @00; 0i
Debug: 2840 1370 batch.c:255 log_batch(): 40b r 00000000 @05 -> + 00000113 @04; 0i
Debug: 2841 1370 batch.c:199 log_dmi_decoded(): read: 
Debug: 2842 1370 batch.c:255 log_batch(): 40b - 00000000 @00 -> + 00000000 @05; 0i
Debug: 2843 1370 batch.c:199 log_dmi_decoded(): read: 
Debug: 2844 1370 riscv-013.c:1652 register_read_direct(): [riscv.cpu1] s4 = 0x113
Debug: 2845 1370 riscv_reg.c:988 riscv_reg_get(): [riscv.cpu1] Read s4: 0x113
Debug: 2846 1370 riscv-013_reg.c:40 riscv013_reg_get(): [riscv.cpu1] Read 0x0000000000000113 from s4 (valid=1).
Debug: 2847 1370 riscv_reg.c:979 riscv_reg_get(): [riscv.cpu1] Reading s5 from target
Debug: 2848 1370 riscv-013.c:5109 riscv013_get_register(): [riscv.cpu1] reading register s5
Debug: 2849 1370 riscv-013.c:1633 register_read_direct(): [riscv.cpu1] Reading s5
Debug: 2850 1370 riscv-013.c:745 riscv013_execute_abstract_command(): [riscv.cpu1] access register=0x321015 {regno=0x1015 write=arg0 transfer=enabled postexec=disabled aarpostincrement=disabled aarsize=64bit}
Debug: 2851 1370 batch.c:291 riscv_batch_run_from(): [riscv.cpu1] Running batch of scans [0, 3)
Debug: 2852 1371 batch.c:255 log_batch(): 40b w 00321015 @17 -> + 00000000 @00; 4i
Debug: 2853 1371 batch.c:199 log_dmi_decoded(): write: command=0x321015 {control=0x321015}
Debug: 2854 1371 batch.c:255 log_batch(): 40b r 00000000 @16 -> + 00321015 @17; 0i
Debug: 2855 1371 batch.c:255 log_batch(): 40b - 00000000 @00 -> + 02000002 @16; 0i
Debug: 2856 1371 batch.c:199 log_dmi_decoded(): read: abstractcs=0x2000002 {datacount=2 progbufsize=2}
Debug: 2857 1371 riscv-013.c:680 abstract_cmd_batch_check_and_clear_cmderr(): [riscv.cpu1] abstractcs=0x2000002 {datacount=2 relaxedpriv=full_checks busy=ready progbufsize=2 cmderr=none}
Debug: 2858 1371 batch.c:291 riscv_batch_run_from(): [riscv.cpu1] Running batch of scans [0, 3)
Debug: 2859 1371 batch.c:255 log_batch(): 40b r 00000000 @04 -> + 00000000 @00; 0i
Debug: 2860 1371 batch.c:255 log_batch(): 40b r 00000000 @05 -> + 00000114 @04; 0i
Debug: 2861 1371 batch.c:199 log_dmi_decoded(): read: 
Debug: 2862 1371 batch.c:255 log_batch(): 40b - 00000000 @00 -> + 00000000 @05; 0i
Debug: 2863 1371 batch.c:199 log_dmi_decoded(): read: 
Debug: 2864 1371 riscv-013.c:1652 register_read_direct(): [riscv.cpu1] s5 = 0x114
Debug: 2865 1371 riscv_reg.c:988 riscv_reg_get(): [riscv.cpu1] Read s5: 0x114
Debug: 2866 1371 riscv-013_reg.c:40 riscv013_reg_get(): [riscv.cpu1] Read 0x0000000000000114 from s5 (valid=1).
Debug: 2867 1371 riscv_reg.c:979 riscv_reg_get(): [riscv.cpu1] Reading s6 from target
Debug: 2868 1371 riscv-013.c:5109 riscv013_get_register(): [riscv.cpu1] reading register s6
Debug: 2869 1371 riscv-013.c:1633 register_read_direct(): [riscv.cpu1] Reading s6
Debug: 2870 1371 riscv-013.c:745 riscv013_execute_abstract_command(): [riscv.cpu1] access register=0x321016 {regno=0x1016 write=arg0 transfer=enabled postexec=disabled aarpostincrement=disabled aarsize=64bit}
Debug: 2871 1371 batch.c:291 riscv_batch_run_from(): [riscv.cpu1] Running batch of scans [0, 3)
Debug: 2872 1372 batch.c:255 log_batch(): 40b w 00321016 @17 -> + 00000000 @00; 4i
Debug: 2873 1372 batch.c:199 log_dmi_decoded(): write: command=0x321016 {control=0x321016}
Debug: 2874 1372 batch.c:255 log_batch(): 40b r 00000000 @16 -> + 00321016 @17; 0i
Debug: 2875 1372 batch.c:255 log_batch(): 40b - 00000000 @00 -> + 02000002 @16; 0i
Debug: 2876 1372 batch.c:199 log_dmi_decoded(): read: abstractcs=0x2000002 {datacount=2 progbufsize=2}
Debug: 2877 1372 riscv-013.c:680 abstract_cmd_batch_check_and_clear_cmderr(): [riscv.cpu1] abstractcs=0x2000002 {datacount=2 relaxedpriv=full_checks busy=ready progbufsize=2 cmderr=none}
Debug: 2878 1372 batch.c:291 riscv_batch_run_from(): [riscv.cpu1] Running batch of scans [0, 3)
Debug: 2879 1372 batch.c:255 log_batch(): 40b r 00000000 @04 -> + 00000000 @00; 0i
Debug: 2880 1372 batch.c:255 log_batch(): 40b r 00000000 @05 -> + 00000115 @04; 0i
Debug: 2881 1372 batch.c:199 log_dmi_decoded(): read: 
Debug: 2882 1372 batch.c:255 log_batch(): 40b - 00000000 @00 -> + 00000000 @05; 0i
Debug: 2883 1372 batch.c:199 log_dmi_decoded(): read: 
Debug: 2884 1372 riscv-013.c:1652 register_read_direct(): [riscv.cpu1] s6 = 0x115
Debug: 2885 1372 riscv_reg.c:988 riscv_reg_get(): [riscv.cpu1] Read s6: 0x115
Debug: 2886 1372 riscv-013_reg.c:40 riscv013_reg_get(): [riscv.cpu1] Read 0x0000000000000115 from s6 (valid=1).
Debug: 2887 1372 riscv_reg.c:979 riscv_reg_get(): [riscv.cpu1] Reading s7 from target
Debug: 2888 1372 riscv-013.c:5109 riscv013_get_register(): [riscv.cpu1] reading register s7
Debug: 2889 1372 riscv-013.c:1633 register_read_direct(): [riscv.cpu1] Reading s7
Debug: 2890 1372 riscv-013.c:745 riscv013_execute_abstract_command(): [riscv.cpu1] access register=0x321017 {regno=0x1017 write=arg0 transfer=enabled postexec=disabled aarpostincrement=disabled aarsize=64bit}
Debug: 2891 1372 batch.c:291 riscv_batch_run_from(): [riscv.cpu1] Running batch of scans [0, 3)
Debug: 2892 1373 batch.c:255 log_batch(): 40b w 00321017 @17 -> + 00000000 @00; 4i
Debug: 2893 1373 batch.c:199 log_dmi_decoded(): write: command=0x321017 {control=0x321017}
Debug: 2894 1373 batch.c:255 log_batch(): 40b r 00000000 @16 -> + 00321017 @17; 0i
Debug: 2895 1373 batch.c:255 log_batch(): 40b - 00000000 @00 -> + 02000002 @16; 0i
Debug: 2896 1373 batch.c:199 log_dmi_decoded(): read: abstractcs=0x2000002 {datacount=2 progbufsize=2}
Debug: 2897 1373 riscv-013.c:680 abstract_cmd_batch_check_and_clear_cmderr(): [riscv.cpu1] abstractcs=0x2000002 {datacount=2 relaxedpriv=full_checks busy=ready progbufsize=2 cmderr=none}
Debug: 2898 1373 batch.c:291 riscv_batch_run_from(): [riscv.cpu1] Running batch of scans [0, 3)
Debug: 2899 1373 batch.c:255 log_batch(): 40b r 00000000 @04 -> + 00000000 @00; 0i
Debug: 2900 1373 batch.c:255 log_batch(): 40b r 00000000 @05 -> + 00000116 @04; 0i
Debug: 2901 1373 batch.c:199 log_dmi_decoded(): read: 
Debug: 2902 1373 batch.c:255 log_batch(): 40b - 00000000 @00 -> + 00000000 @05; 0i
Debug: 2903 1373 batch.c:199 log_dmi_decoded(): read: 
Debug: 2904 1373 riscv-013.c:1652 register_read_direct(): [riscv.cpu1] s7 = 0x116
Debug: 2905 1373 riscv_reg.c:988 riscv_reg_get(): [riscv.cpu1] Read s7: 0x116
Debug: 2906 1373 riscv-013_reg.c:40 riscv013_reg_get(): [riscv.cpu1] Read 0x0000000000000116 from s7 (valid=1).
Debug: 2907 1373 riscv_reg.c:979 riscv_reg_get(): [riscv.cpu1] Reading s8 from target
Debug: 2908 1373 riscv-013.c:5109 riscv013_get_register(): [riscv.cpu1] reading register s8
Debug: 2909 1373 riscv-013.c:1633 register_read_direct(): [riscv.cpu1] Reading s8
Debug: 2910 1373 riscv-013.c:745 riscv013_execute_abstract_command(): [riscv.cpu1] access register=0x321018 {regno=0x1018 write=arg0 transfer=enabled postexec=disabled aarpostincrement=disabled aarsize=64bit}
Debug: 2911 1373 batch.c:291 riscv_batch_run_from(): [riscv.cpu1] Running batch of scans [0, 3)
Debug: 2912 1381 batch.c:255 log_batch(): 40b w 00321018 @17 -> + 00000000 @00; 4i
Debug: 2913 1381 batch.c:199 log_dmi_decoded(): write: command=0x321018 {control=0x321018}
Debug: 2914 1381 batch.c:255 log_batch(): 40b r 00000000 @16 -> + 00321018 @17; 0i
Debug: 2915 1381 batch.c:255 log_batch(): 40b - 00000000 @00 -> + 02000002 @16; 0i
Debug: 2916 1381 batch.c:199 log_dmi_decoded(): read: abstractcs=0x2000002 {datacount=2 progbufsize=2}
Debug: 2917 1381 riscv-013.c:680 abstract_cmd_batch_check_and_clear_cmderr(): [riscv.cpu1] abstractcs=0x2000002 {datacount=2 relaxedpriv=full_checks busy=ready progbufsize=2 cmderr=none}
Debug: 2918 1381 batch.c:291 riscv_batch_run_from(): [riscv.cpu1] Running batch of scans [0, 3)
Debug: 2919 1382 batch.c:255 log_batch(): 40b r 00000000 @04 -> + 00000000 @00; 0i
Debug: 2920 1382 batch.c:255 log_batch(): 40b r 00000000 @05 -> + 00000117 @04; 0i
Debug: 2921 1382 batch.c:199 log_dmi_decoded(): read: 
Debug: 2922 1382 batch.c:255 log_batch(): 40b - 00000000 @00 -> + 00000000 @05; 0i
Debug: 2923 1382 batch.c:199 log_dmi_decoded(): read: 
Debug: 2924 1382 riscv-013.c:1652 register_read_direct(): [riscv.cpu1] s8 = 0x117
Debug: 2925 1382 riscv_reg.c:988 riscv_reg_get(): [riscv.cpu1] Read s8: 0x117
Debug: 2926 1382 riscv-013_reg.c:40 riscv013_reg_get(): [riscv.cpu1] Read 0x0000000000000117 from s8 (valid=1).
Debug: 2927 1382 riscv_reg.c:979 riscv_reg_get(): [riscv.cpu1] Reading s9 from target
Debug: 2928 1382 riscv-013.c:5109 riscv013_get_register(): [riscv.cpu1] reading register s9
Debug: 2929 1382 riscv-013.c:1633 register_read_direct(): [riscv.cpu1] Reading s9
Debug: 2930 1382 riscv-013.c:745 riscv013_execute_abstract_command(): [riscv.cpu1] access register=0x321019 {regno=0x1019 write=arg0 transfer=enabled postexec=disabled aarpostincrement=disabled aarsize=64bit}
Debug: 2931 1382 batch.c:291 riscv_batch_run_from(): [riscv.cpu1] Running batch of scans [0, 3)
Debug: 2932 1382 batch.c:255 log_batch(): 40b w 00321019 @17 -> + 00000000 @00; 4i
Debug: 2933 1382 batch.c:199 log_dmi_decoded(): write: command=0x321019 {control=0x321019}
Debug: 2934 1382 batch.c:255 log_batch(): 40b r 00000000 @16 -> + 00321019 @17; 0i
Debug: 2935 1382 batch.c:255 log_batch(): 40b - 00000000 @00 -> + 02000002 @16; 0i
Debug: 2936 1382 batch.c:199 log_dmi_decoded(): read: abstractcs=0x2000002 {datacount=2 progbufsize=2}
Debug: 2937 1382 riscv-013.c:680 abstract_cmd_batch_check_and_clear_cmderr(): [riscv.cpu1] abstractcs=0x2000002 {datacount=2 relaxedpriv=full_checks busy=ready progbufsize=2 cmderr=none}
Debug: 2938 1382 batch.c:291 riscv_batch_run_from(): [riscv.cpu1] Running batch of scans [0, 3)
Debug: 2939 1383 batch.c:255 log_batch(): 40b r 00000000 @04 -> + 00000000 @00; 0i
Debug: 2940 1383 batch.c:255 log_batch(): 40b r 00000000 @05 -> + 00000118 @04; 0i
Debug: 2941 1383 batch.c:199 log_dmi_decoded(): read: 
Debug: 2942 1383 batch.c:255 log_batch(): 40b - 00000000 @00 -> + 00000000 @05; 0i
Debug: 2943 1383 batch.c:199 log_dmi_decoded(): read: 
Debug: 2944 1383 riscv-013.c:1652 register_read_direct(): [riscv.cpu1] s9 = 0x118
Debug: 2945 1383 riscv_reg.c:988 riscv_reg_get(): [riscv.cpu1] Read s9: 0x118
Debug: 2946 1383 riscv-013_reg.c:40 riscv013_reg_get(): [riscv.cpu1] Read 0x0000000000000118 from s9 (valid=1).
Debug: 2947 1383 riscv_reg.c:979 riscv_reg_get(): [riscv.cpu1] Reading s10 from target
Debug: 2948 1383 riscv-013.c:5109 riscv013_get_register(): [riscv.cpu1] reading register s10
Debug: 2949 1383 riscv-013.c:1633 register_read_direct(): [riscv.cpu1] Reading s10
Debug: 2950 1383 riscv-013.c:745 riscv013_execute_abstract_command(): [riscv.cpu1] access register=0x32101a {regno=0x101a write=arg0 transfer=enabled postexec=disabled aarpostincrement=disabled aarsize=64bit}
Debug: 2951 1383 batch.c:291 riscv_batch_run_from(): [riscv.cpu1] Running batch of scans [0, 3)
Debug: 2952 1384 batch.c:255 log_batch(): 40b w 0032101a @17 -> + 00000000 @00; 4i
Debug: 2953 1384 batch.c:199 log_dmi_decoded(): write: command=0x32101a {control=0x32101a}
Debug: 2954 1384 batch.c:255 log_batch(): 40b r 00000000 @16 -> + 0032101a @17; 0i
Debug: 2955 1384 batch.c:255 log_batch(): 40b - 00000000 @00 -> + 02000002 @16; 0i
Debug: 2956 1384 batch.c:199 log_dmi_decoded(): read: abstractcs=0x2000002 {datacount=2 progbufsize=2}
Debug: 2957 1384 riscv-013.c:680 abstract_cmd_batch_check_and_clear_cmderr(): [riscv.cpu1] abstractcs=0x2000002 {datacount=2 relaxedpriv=full_checks busy=ready progbufsize=2 cmderr=none}
Debug: 2958 1384 batch.c:291 riscv_batch_run_from(): [riscv.cpu1] Running batch of scans [0, 3)
Debug: 2959 1385 batch.c:255 log_batch(): 40b r 00000000 @04 -> + 00000000 @00; 0i
Debug: 2960 1385 batch.c:255 log_batch(): 40b r 00000000 @05 -> + 00000119 @04; 0i
Debug: 2961 1385 batch.c:199 log_dmi_decoded(): read: 
Debug: 2962 1385 batch.c:255 log_batch(): 40b - 00000000 @00 -> + 00000000 @05; 0i
Debug: 2963 1385 batch.c:199 log_dmi_decoded(): read: 
Debug: 2964 1385 riscv-013.c:1652 register_read_direct(): [riscv.cpu1] s10 = 0x119
Debug: 2965 1385 riscv_reg.c:988 riscv_reg_get(): [riscv.cpu1] Read s10: 0x119
Debug: 2966 1385 riscv-013_reg.c:40 riscv013_reg_get(): [riscv.cpu1] Read 0x0000000000000119 from s10 (valid=1).
Debug: 2967 1385 riscv_reg.c:979 riscv_reg_get(): [riscv.cpu1] Reading s11 from target
Debug: 2968 1385 riscv-013.c:5109 riscv013_get_register(): [riscv.cpu1] reading register s11
Debug: 2969 1385 riscv-013.c:1633 register_read_direct(): [riscv.cpu1] Reading s11
Debug: 2970 1385 riscv-013.c:745 riscv013_execute_abstract_command(): [riscv.cpu1] access register=0x32101b {regno=0x101b write=arg0 transfer=enabled postexec=disabled aarpostincrement=disabled aarsize=64bit}
Debug: 2971 1385 batch.c:291 riscv_batch_run_from(): [riscv.cpu1] Running batch of scans [0, 3)
Debug: 2972 1385 batch.c:255 log_batch(): 40b w 0032101b @17 -> + 00000000 @00; 4i
Debug: 2973 1385 batch.c:199 log_dmi_decoded(): write: command=0x32101b {control=0x32101b}
Debug: 2974 1385 batch.c:255 log_batch(): 40b r 00000000 @16 -> + 0032101b @17; 0i
Debug: 2975 1385 batch.c:255 log_batch(): 40b - 00000000 @00 -> + 02000002 @16; 0i
Debug: 2976 1385 batch.c:199 log_dmi_decoded(): read: abstractcs=0x2000002 {datacount=2 progbufsize=2}
Debug: 2977 1385 riscv-013.c:680 abstract_cmd_batch_check_and_clear_cmderr(): [riscv.cpu1] abstractcs=0x2000002 {datacount=2 relaxedpriv=full_checks busy=ready progbufsize=2 cmderr=none}
Debug: 2978 1385 batch.c:291 riscv_batch_run_from(): [riscv.cpu1] Running batch of scans [0, 3)
Debug: 2979 1386 batch.c:255 log_batch(): 40b r 00000000 @04 -> + 00000000 @00; 0i
Debug: 2980 1386 batch.c:255 log_batch(): 40b r 00000000 @05 -> + 0000011a @04; 0i
Debug: 2981 1386 batch.c:199 log_dmi_decoded(): read: 
Debug: 2982 1386 batch.c:255 log_batch(): 40b - 00000000 @00 -> + 00000000 @05; 0i
Debug: 2983 1386 batch.c:199 log_dmi_decoded(): read: 
Debug: 2984 1386 riscv-013.c:1652 register_read_direct(): [riscv.cpu1] s11 = 0x11a
Debug: 2985 1386 riscv_reg.c:988 riscv_reg_get(): [riscv.cpu1] Read s11: 0x11a
Debug: 2986 1386 riscv-013_reg.c:40 riscv013_reg_get(): [riscv.cpu1] Read 0x000000000000011a from s11 (valid=1).
Debug: 2987 1386 riscv_reg.c:979 riscv_reg_get(): [riscv.cpu1] Reading t3 from target
Debug: 2988 1386 riscv-013.c:5109 riscv013_get_register(): [riscv.cpu1] reading register t3
Debug: 2989 1386 riscv-013.c:1633 register_read_direct(): [riscv.cpu1] Reading t3
Debug: 2990 1386 riscv-013.c:745 riscv013_execute_abstract_command(): [riscv.cpu1] access register=0x32101c {regno=0x101c write=arg0 transfer=enabled postexec=disabled aarpostincrement=disabled aarsize=64bit}
Debug: 2991 1386 batch.c:291 riscv_batch_run_from(): [riscv.cpu1] Running batch of scans [0, 3)
Debug: 2992 1386 batch.c:255 log_batch(): 40b w 0032101c @17 -> + 00000000 @00; 4i
Debug: 2993 1386 batch.c:199 log_dmi_decoded(): write: command=0x32101c {control=0x32101c}
Debug: 2994 1386 batch.c:255 log_batch(): 40b r 00000000 @16 -> + 0032101c @17; 0i
Debug: 2995 1386 batch.c:255 log_batch(): 40b - 00000000 @00 -> + 02000002 @16; 0i
Debug: 2996 1386 batch.c:199 log_dmi_decoded(): read: abstractcs=0x2000002 {datacount=2 progbufsize=2}
Debug: 2997 1386 riscv-013.c:680 abstract_cmd_batch_check_and_clear_cmderr(): [riscv.cpu1] abstractcs=0x2000002 {datacount=2 relaxedpriv=full_checks busy=ready progbufsize=2 cmderr=none}
Debug: 2998 1386 batch.c:291 riscv_batch_run_from(): [riscv.cpu1] Running batch of scans [0, 3)
Debug: 2999 1387 batch.c:255 log_batch(): 40b r 00000000 @04 -> + 00000000 @00; 0i
Debug: 3000 1387 batch.c:255 log_batch(): 40b r 00000000 @05 -> + 0000011b @04; 0i
Debug: 3001 1387 batch.c:199 log_dmi_decoded(): read: 
Debug: 3002 1387 batch.c:255 log_batch(): 40b - 00000000 @00 -> + 00000000 @05; 0i
Debug: 3003 1387 batch.c:199 log_dmi_decoded(): read: 
Debug: 3004 1387 riscv-013.c:1652 register_read_direct(): [riscv.cpu1] t3 = 0x11b
Debug: 3005 1387 riscv_reg.c:988 riscv_reg_get(): [riscv.cpu1] Read t3: 0x11b
Debug: 3006 1387 riscv-013_reg.c:40 riscv013_reg_get(): [riscv.cpu1] Read 0x000000000000011b from t3 (valid=1).
Debug: 3007 1387 riscv_reg.c:979 riscv_reg_get(): [riscv.cpu1] Reading t4 from target
Debug: 3008 1387 riscv-013.c:5109 riscv013_get_register(): [riscv.cpu1] reading register t4
Debug: 3009 1387 riscv-013.c:1633 register_read_direct(): [riscv.cpu1] Reading t4
Debug: 3010 1387 riscv-013.c:745 riscv013_execute_abstract_command(): [riscv.cpu1] access register=0x32101d {regno=0x101d write=arg0 transfer=enabled postexec=disabled aarpostincrement=disabled aarsize=64bit}
Debug: 3011 1387 batch.c:291 riscv_batch_run_from(): [riscv.cpu1] Running batch of scans [0, 3)
Debug: 3012 1387 batch.c:255 log_batch(): 40b w 0032101d @17 -> + 00000000 @00; 4i
Debug: 3013 1387 batch.c:199 log_dmi_decoded(): write: command=0x32101d {control=0x32101d}
Debug: 3014 1387 batch.c:255 log_batch(): 40b r 00000000 @16 -> + 0032101d @17; 0i
Debug: 3015 1387 batch.c:255 log_batch(): 40b - 00000000 @00 -> + 02000002 @16; 0i
Debug: 3016 1387 batch.c:199 log_dmi_decoded(): read: abstractcs=0x2000002 {datacount=2 progbufsize=2}
Debug: 3017 1387 riscv-013.c:680 abstract_cmd_batch_check_and_clear_cmderr(): [riscv.cpu1] abstractcs=0x2000002 {datacount=2 relaxedpriv=full_checks busy=ready progbufsize=2 cmderr=none}
Debug: 3018 1387 batch.c:291 riscv_batch_run_from(): [riscv.cpu1] Running batch of scans [0, 3)
Debug: 3019 1388 batch.c:255 log_batch(): 40b r 00000000 @04 -> + 00000000 @00; 0i
Debug: 3020 1388 batch.c:255 log_batch(): 40b r 00000000 @05 -> + 0000011c @04; 0i
Debug: 3021 1388 batch.c:199 log_dmi_decoded(): read: 
Debug: 3022 1388 batch.c:255 log_batch(): 40b - 00000000 @00 -> + 00000000 @05; 0i
Debug: 3023 1388 batch.c:199 log_dmi_decoded(): read: 
Debug: 3024 1388 riscv-013.c:1652 register_read_direct(): [riscv.cpu1] t4 = 0x11c
Debug: 3025 1388 riscv_reg.c:988 riscv_reg_get(): [riscv.cpu1] Read t4: 0x11c
Debug: 3026 1388 riscv-013_reg.c:40 riscv013_reg_get(): [riscv.cpu1] Read 0x000000000000011c from t4 (valid=1).
Debug: 3027 1388 riscv_reg.c:979 riscv_reg_get(): [riscv.cpu1] Reading t5 from target
Debug: 3028 1388 riscv-013.c:5109 riscv013_get_register(): [riscv.cpu1] reading register t5
Debug: 3029 1388 riscv-013.c:1633 register_read_direct(): [riscv.cpu1] Reading t5
Debug: 3030 1388 riscv-013.c:745 riscv013_execute_abstract_command(): [riscv.cpu1] access register=0x32101e {regno=0x101e write=arg0 transfer=enabled postexec=disabled aarpostincrement=disabled aarsize=64bit}
Debug: 3031 1388 batch.c:291 riscv_batch_run_from(): [riscv.cpu1] Running batch of scans [0, 3)
Debug: 3032 1389 batch.c:255 log_batch(): 40b w 0032101e @17 -> + 00000000 @00; 4i
Debug: 3033 1389 batch.c:199 log_dmi_decoded(): write: command=0x32101e {control=0x32101e}
Debug: 3034 1389 batch.c:255 log_batch(): 40b r 00000000 @16 -> + 0032101e @17; 0i
Debug: 3035 1389 batch.c:255 log_batch(): 40b - 00000000 @00 -> + 02000002 @16; 0i
Debug: 3036 1389 batch.c:199 log_dmi_decoded(): read: abstractcs=0x2000002 {datacount=2 progbufsize=2}
Debug: 3037 1389 riscv-013.c:680 abstract_cmd_batch_check_and_clear_cmderr(): [riscv.cpu1] abstractcs=0x2000002 {datacount=2 relaxedpriv=full_checks busy=ready progbufsize=2 cmderr=none}
Debug: 3038 1389 batch.c:291 riscv_batch_run_from(): [riscv.cpu1] Running batch of scans [0, 3)
Debug: 3039 1389 batch.c:255 log_batch(): 40b r 00000000 @04 -> + 00000000 @00; 0i
Debug: 3040 1389 batch.c:255 log_batch(): 40b r 00000000 @05 -> + 0000011d @04; 0i
Debug: 3041 1389 batch.c:199 log_dmi_decoded(): read: 
Debug: 3042 1389 batch.c:255 log_batch(): 40b - 00000000 @00 -> + 00000000 @05; 0i
Debug: 3043 1389 batch.c:199 log_dmi_decoded(): read: 
Debug: 3044 1389 riscv-013.c:1652 register_read_direct(): [riscv.cpu1] t5 = 0x11d
Debug: 3045 1389 riscv_reg.c:988 riscv_reg_get(): [riscv.cpu1] Read t5: 0x11d
Debug: 3046 1389 riscv-013_reg.c:40 riscv013_reg_get(): [riscv.cpu1] Read 0x000000000000011d from t5 (valid=1).
Debug: 3047 1389 riscv_reg.c:979 riscv_reg_get(): [riscv.cpu1] Reading t6 from target
Debug: 3048 1389 riscv-013.c:5109 riscv013_get_register(): [riscv.cpu1] reading register t6
Debug: 3049 1389 riscv-013.c:1633 register_read_direct(): [riscv.cpu1] Reading t6
Debug: 3050 1389 riscv-013.c:745 riscv013_execute_abstract_command(): [riscv.cpu1] access register=0x32101f {regno=0x101f write=arg0 transfer=enabled postexec=disabled aarpostincrement=disabled aarsize=64bit}
Debug: 3051 1389 batch.c:291 riscv_batch_run_from(): [riscv.cpu1] Running batch of scans [0, 3)
Debug: 3052 1391 batch.c:255 log_batch(): 40b w 0032101f @17 -> + 00000000 @00; 4i
Debug: 3053 1391 batch.c:199 log_dmi_decoded(): write: command=0x32101f {control=0x32101f}
Debug: 3054 1391 batch.c:255 log_batch(): 40b r 00000000 @16 -> + 0032101f @17; 0i
Debug: 3055 1391 batch.c:255 log_batch(): 40b - 00000000 @00 -> + 02000002 @16; 0i
Debug: 3056 1391 batch.c:199 log_dmi_decoded(): read: abstractcs=0x2000002 {datacount=2 progbufsize=2}
Debug: 3057 1391 riscv-013.c:680 abstract_cmd_batch_check_and_clear_cmderr(): [riscv.cpu1] abstractcs=0x2000002 {datacount=2 relaxedpriv=full_checks busy=ready progbufsize=2 cmderr=none}
Debug: 3058 1391 batch.c:291 riscv_batch_run_from(): [riscv.cpu1] Running batch of scans [0, 3)
Debug: 3059 1392 batch.c:255 log_batch(): 40b r 00000000 @04 -> + 00000000 @00; 0i
Debug: 3060 1392 batch.c:255 log_batch(): 40b r 00000000 @05 -> + 0000011e @04; 0i
Debug: 3061 1392 batch.c:199 log_dmi_decoded(): read: 
Debug: 3062 1392 batch.c:255 log_batch(): 40b - 00000000 @00 -> + 00000000 @05; 0i
Debug: 3063 1392 batch.c:199 log_dmi_decoded(): read: 
Debug: 3064 1392 riscv-013.c:1652 register_read_direct(): [riscv.cpu1] t6 = 0x11e
Debug: 3065 1392 riscv_reg.c:988 riscv_reg_get(): [riscv.cpu1] Read t6: 0x11e
Debug: 3066 1392 riscv-013_reg.c:40 riscv013_reg_get(): [riscv.cpu1] Read 0x000000000000011e from t6 (valid=1).
Debug: 3067 1392 riscv_reg.c:979 riscv_reg_get(): [riscv.cpu1] Reading dpc from target
Debug: 3068 1392 riscv-013.c:5109 riscv013_get_register(): [riscv.cpu1] reading register dpc
Debug: 3069 1392 riscv-013.c:1633 register_read_direct(): [riscv.cpu1] Reading dpc
Debug: 3070 1392 riscv-013.c:745 riscv013_execute_abstract_command(): [riscv.cpu1] access register=0x3207b1 {regno=0x7b1 write=arg0 transfer=enabled postexec=disabled aarpostincrement=disabled aarsize=64bit}
Debug: 3071 1392 batch.c:291 riscv_batch_run_from(): [riscv.cpu1] Running batch of scans [0, 3)
Debug: 3072 1392 batch.c:255 log_batch(): 40b w 003207b1 @17 -> + 00000000 @00; 4i
Debug: 3073 1392 batch.c:199 log_dmi_decoded(): write: command=0x3207b1 {control=0x3207b1}
Debug: 3074 1392 batch.c:255 log_batch(): 40b r 00000000 @16 -> + 003207b1 @17; 0i
Debug: 3075 1392 batch.c:255 log_batch(): 40b - 00000000 @00 -> + 02000002 @16; 0i
Debug: 3076 1392 batch.c:199 log_dmi_decoded(): read: abstractcs=0x2000002 {datacount=2 progbufsize=2}
Debug: 3077 1392 riscv-013.c:680 abstract_cmd_batch_check_and_clear_cmderr(): [riscv.cpu1] abstractcs=0x2000002 {datacount=2 relaxedpriv=full_checks busy=ready progbufsize=2 cmderr=none}
Debug: 3078 1392 batch.c:291 riscv_batch_run_from(): [riscv.cpu1] Running batch of scans [0, 3)
Debug: 3079 1393 batch.c:255 log_batch(): 40b r 00000000 @04 -> + 00000000 @00; 0i
Debug: 3080 1393 batch.c:255 log_batch(): 40b r 00000000 @05 -> + 123408dc @04; 0i
Debug: 3081 1393 batch.c:199 log_dmi_decoded(): read: 
Debug: 3082 1393 batch.c:255 log_batch(): 40b - 00000000 @00 -> + 00000012 @05; 0i
Debug: 3083 1393 batch.c:199 log_dmi_decoded(): read: 
Debug: 3084 1393 riscv-013.c:1652 register_read_direct(): [riscv.cpu1] dpc = 0x12123408dc
Debug: 3085 1393 riscv_reg.c:988 riscv_reg_get(): [riscv.cpu1] Read dpc: 0x12123408dc
Debug: 3086 1393 riscv-013_reg.c:40 riscv013_reg_get(): [riscv.cpu1] Read 0x00000012123408dc from pc (valid=0).
Debug: 3087 1393 riscv_reg.c:974 riscv_reg_get(): [riscv.cpu1] Read dpc: 0x12123408dc (cached)
Debug: 3088 1393 riscv-013_reg.c:40 riscv013_reg_get(): [riscv.cpu1] Read 0x00000012123408dc from pc (valid=0).
Debug: 3089 1393 gdb_server.c:425 gdb_log_outgoing_packet(): [riscv.cpu1] {2} sending packet: $000000000000000000010000000000000101000000000000020100000000000003010000000000000401000000000000050100000000000006010000000000000701000000000000080100000000000009010000000000000a010000000000000b010000000000000c010000000000000d010000000000000e010000000000000f0100000000000010010000000000001101000000000000120100000000000013010000000000001401000000000000150100000000000016010000000000001701000000000000180100000000000019010000000000001a010000000000001b010000000000001c010000000000001d010000000000001e01000000000000dc08341212000000#38
Debug: 3090 1393 gdb_server.c:408 gdb_log_incoming_packet(): [riscv.cpu1] {2} received packet: qXfer:threads:read::0,1000
Debug: 3091 1393 gdb_server.c:422 gdb_log_outgoing_packet(): [riscv.cpu1] {2} sending packet: $<binary-data-44-bytes>#02
Debug: 3092 1401 riscv.c:4022 riscv_openocd_poll(): [riscv.cpu0] Polling all harts.
Debug: 3093 1401 riscv.c:3845 riscv_poll_hart(): [riscv.cpu0] polling, target->state=2
Debug: 3094 1401 batch.c:291 riscv_batch_run_from(): [riscv.cpu0] Running batch of scans [0, 2)
Debug: 3095 1402 batch.c:255 log_batch(): 40b w 00000001 @10 -> + 00000000 @00; 0i
Debug: 3096 1402 batch.c:199 log_dmi_decoded(): write: dmcontrol=1 {dmactive=active}
Debug: 3097 1402 batch.c:255 log_batch(): 40b - 00000000 @00 -> + 00000001 @10; 0i
Debug: 3098 1402 batch.c:291 riscv_batch_run_from(): [riscv.cpu0] Running batch of scans [0, 2)
Debug: 3099 1402 batch.c:255 log_batch(): 40b r 00000000 @11 -> + 00000000 @00; 0i
Debug: 3100 1402 batch.c:255 log_batch(): 40b - 00000000 @00 -> + 00430382 @11; 0i
Debug: 3101 1402 batch.c:199 log_dmi_decoded(): read: dmstatus=0x430382 {version=0_13 anyresumeack=1 allresumeack=1 impebreak=1 authenticated=true anyhalted=1 allhalted=1}
Debug: 3102 1402 riscv_reg.c:781 riscv_reg_flush_all(): [riscv.cpu0] Flushing register cache
Debug: 3103 1402 riscv_reg.c:792 riscv_reg_flush_all(): [riscv.cpu0] s1 is dirty; write back 0x8
Debug: 3104 1402 riscv_reg.c:856 riscv_set_or_write_register(): [riscv.cpu0] Writing to target: s1 <- 0x8 (cacheable=true, valid=true, dirty=true)
Debug: 3105 1402 riscv-013.c:5125 riscv013_set_register(): [riscv.cpu0] writing 0x8 to register s1
Debug: 3106 1402 riscv-013.c:1604 register_write_direct(): [riscv.cpu0] Writing 0x8 to s1
Debug: 3107 1402 riscv-013.c:976 register_write_abstract(): [riscv.cpu0] access register=0x331009 {regno=0x1009 write=register transfer=enabled postexec=disabled aarpostincrement=disabled aarsize=64bit}
Debug: 3108 1402 batch.c:291 riscv_batch_run_from(): [riscv.cpu0] Running batch of scans [0, 5)
Debug: 3109 1405 batch.c:255 log_batch(): 40b w 00000008 @04 -> + 00000000 @00; 0i
Debug: 3110 1405 batch.c:199 log_dmi_decoded(): write: 
Debug: 3111 1405 batch.c:255 log_batch(): 40b w 00000000 @05 -> + 00000008 @04; 0i
Debug: 3112 1405 batch.c:199 log_dmi_decoded(): write: 
Debug: 3113 1405 batch.c:255 log_batch(): 40b w 00331009 @17 -> + 00000000 @05; 4i
Debug: 3114 1405 batch.c:199 log_dmi_decoded(): write: command=0x331009 {control=0x331009}
Debug: 3115 1405 batch.c:255 log_batch(): 40b r 00000000 @16 -> + 00331009 @17; 0i
Debug: 3116 1405 batch.c:255 log_batch(): 40b - 00000000 @00 -> + 02000002 @16; 0i
Debug: 3117 1405 batch.c:199 log_dmi_decoded(): read: abstractcs=0x2000002 {datacount=2 progbufsize=2}
Debug: 3118 1405 riscv-013.c:680 abstract_cmd_batch_check_and_clear_cmderr(): [riscv.cpu0] abstractcs=0x2000002 {datacount=2 relaxedpriv=full_checks busy=ready progbufsize=2 cmderr=none}
Debug: 3119 1405 riscv-013.c:1623 register_write_direct(): [riscv.cpu0] s1 <- 0x8
Debug: 3120 1405 riscv_reg.c:872 riscv_set_or_write_register(): [riscv.cpu0] Wrote 0x8 to s1 (cacheable=true, valid=true, dirty=false)
Debug: 3121 1405 riscv_reg.c:792 riscv_reg_flush_all(): [riscv.cpu0] fp is dirty; write back 0x7
Debug: 3122 1405 riscv_reg.c:856 riscv_set_or_write_register(): [riscv.cpu0] Writing to target: fp <- 0x7 (cacheable=true, valid=true, dirty=true)
Debug: 3123 1405 riscv-013.c:5125 riscv013_set_register(): [riscv.cpu0] writing 0x7 to register fp
Debug: 3124 1405 riscv-013.c:1604 register_write_direct(): [riscv.cpu0] Writing 0x7 to fp
Debug: 3125 1405 riscv-013.c:976 register_write_abstract(): [riscv.cpu0] access register=0x331008 {regno=0x1008 write=register transfer=enabled postexec=disabled aarpostincrement=disabled aarsize=64bit}
Debug: 3126 1405 batch.c:291 riscv_batch_run_from(): [riscv.cpu0] Running batch of scans [0, 5)
Debug: 3127 1405 batch.c:255 log_batch(): 40b w 00000007 @04 -> + 00000000 @00; 0i
Debug: 3128 1405 batch.c:199 log_dmi_decoded(): write: 
Debug: 3129 1405 batch.c:255 log_batch(): 40b w 00000000 @05 -> + 00000007 @04; 0i
Debug: 3130 1405 batch.c:199 log_dmi_decoded(): write: 
Debug: 3131 1405 batch.c:255 log_batch(): 40b w 00331008 @17 -> + 00000000 @05; 4i
Debug: 3132 1405 batch.c:199 log_dmi_decoded(): write: command=0x331008 {control=0x331008}
Debug: 3133 1405 batch.c:255 log_batch(): 40b r 00000000 @16 -> + 00331008 @17; 0i
Debug: 3134 1405 batch.c:255 log_batch(): 40b - 00000000 @00 -> + 02000002 @16; 0i
Debug: 3135 1405 batch.c:199 log_dmi_decoded(): read: abstractcs=0x2000002 {datacount=2 progbufsize=2}
Debug: 3136 1405 riscv-013.c:680 abstract_cmd_batch_check_and_clear_cmderr(): [riscv.cpu0] abstractcs=0x2000002 {datacount=2 relaxedpriv=full_checks busy=ready progbufsize=2 cmderr=none}
Debug: 3137 1405 riscv-013.c:1623 register_write_direct(): [riscv.cpu0] fp <- 0x7
Debug: 3138 1405 riscv_reg.c:872 riscv_set_or_write_register(): [riscv.cpu0] Wrote 0x7 to fp (cacheable=true, valid=true, dirty=false)
Debug: 3139 1405 riscv_reg.c:798 riscv_reg_flush_all(): [riscv.cpu0] Flush of register cache completed
Debug: 3140 1405 riscv.c:4081 riscv_openocd_poll(): [riscv.cpu0] should_remain_halted=0, should_resume=0
Debug: 3141 1405 riscv.c:4022 riscv_openocd_poll(): [riscv.cpu1] Polling all harts.
Debug: 3142 1405 riscv.c:3845 riscv_poll_hart(): [riscv.cpu1] polling, target->state=2
Debug: 3143 1405 batch.c:291 riscv_batch_run_from(): [riscv.cpu1] Running batch of scans [0, 2)
Debug: 3144 1406 batch.c:255 log_batch(): 40b w 00010001 @10 -> + 00000000 @00; 0i
Debug: 3145 1406 batch.c:199 log_dmi_decoded(): write: dmcontrol=0x10001 {dmactive=active hartsello=1}
Debug: 3146 1406 batch.c:255 log_batch(): 40b - 00000000 @00 -> + 00010001 @10; 0i
Debug: 3147 1406 batch.c:291 riscv_batch_run_from(): [riscv.cpu1] Running batch of scans [0, 2)
Debug: 3148 1406 batch.c:255 log_batch(): 40b r 00000000 @11 -> + 00000000 @00; 0i
Debug: 3149 1406 batch.c:255 log_batch(): 40b - 00000000 @00 -> + 00430382 @11; 0i
Debug: 3150 1406 batch.c:199 log_dmi_decoded(): read: dmstatus=0x430382 {version=0_13 anyresumeack=1 allresumeack=1 impebreak=1 authenticated=true anyhalted=1 allhalted=1}
Debug: 3151 1406 riscv_reg.c:781 riscv_reg_flush_all(): [riscv.cpu1] Flushing register cache
Debug: 3152 1406 riscv_reg.c:798 riscv_reg_flush_all(): [riscv.cpu1] Flush of register cache completed
Debug: 3153 1406 riscv.c:4081 riscv_openocd_poll(): [riscv.cpu1] should_remain_halted=0, should_resume=0
Debug: 3154 1446 gdb_server.c:408 gdb_log_incoming_packet(): [riscv.cpu1] {2} received packet: qRcmd,72697363762072657365745f64656c617973203137
Debug: 3155 1446 command.c:82 script_debug(): command - riscv reset_delays 17
Debug: 3156 1446 gdb_server.c:425 gdb_log_outgoing_packet(): [riscv.cpu1] {2} sending packet: $OK#9a
Debug: 3157 1501 gdb_server.c:408 gdb_log_incoming_packet(): [riscv.cpu1] {2} received packet: qSymbol::
Debug: 3158 1501 gdb_server.c:425 gdb_log_outgoing_packet(): [riscv.cpu1] {2} sending packet: $OK#9a
Debug: 3159 1501 gdb_server.c:408 gdb_log_incoming_packet(): [riscv.cpu1] {2} received packet: qSymbol::
Debug: 3160 1501 gdb_server.c:425 gdb_log_outgoing_packet(): [riscv.cpu1] {2} sending packet: $OK#9a
Debug: 3161 1502 gdb_server.c:408 gdb_log_incoming_packet(): [riscv.cpu1] {2} received packet: g
Debug: 3162 1502 riscv.c:3513 riscv_get_gdb_reg_list_internal(): [riscv.cpu1] reg_class=1, read=1
Debug: 3163 1502 riscv_reg.c:974 riscv_reg_get(): [riscv.cpu1] Read dpc: 0x12123408dc (cached)
Debug: 3164 1502 riscv-013_reg.c:40 riscv013_reg_get(): [riscv.cpu1] Read 0x00000012123408dc from pc (valid=0).
Debug: 3165 1502 riscv_reg.c:974 riscv_reg_get(): [riscv.cpu1] Read dpc: 0x12123408dc (cached)
Debug: 3166 1502 riscv-013_reg.c:40 riscv013_reg_get(): [riscv.cpu1] Read 0x00000012123408dc from pc (valid=0).
Debug: 3167 1502 gdb_server.c:425 gdb_log_outgoing_packet(): [riscv.cpu1] {2} sending packet: $000000000000000000010000000000000101000000000000020100000000000003010000000000000401000000000000050100000000000006010000000000000701000000000000080100000000000009010000000000000a010000000000000b010000000000000c010000000000000d010000000000000e010000000000000f0100000000000010010000000000001101000000000000120100000000000013010000000000001401000000000000150100000000000016010000000000001701000000000000180100000000000019010000000000001a010000000000001b010000000000001c010000000000001d010000000000001e01000000000000dc08341212000000#38
Debug: 3168 1546 riscv.c:4022 riscv_openocd_poll(): [riscv.cpu0] Polling all harts.
Debug: 3169 1546 riscv.c:3845 riscv_poll_hart(): [riscv.cpu0] polling, target->state=2
Debug: 3170 1546 batch.c:291 riscv_batch_run_from(): [riscv.cpu0] Running batch of scans [0, 2)
Debug: 3171 1546 batch.c:255 log_batch(): 40b w 00000001 @10 -> + 00000000 @00; 0i
Debug: 3172 1546 batch.c:199 log_dmi_decoded(): write: dmcontrol=1 {dmactive=active}
Debug: 3173 1546 batch.c:255 log_batch(): 40b - 00000000 @00 -> + 00000001 @10; 0i
Debug: 3174 1546 batch.c:291 riscv_batch_run_from(): [riscv.cpu0] Running batch of scans [0, 2)
Debug: 3175 1546 batch.c:255 log_batch(): 40b r 00000000 @11 -> + 00000000 @00; 0i
Debug: 3176 1546 batch.c:255 log_batch(): 40b - 00000000 @00 -> + 00430382 @11; 0i
Debug: 3177 1546 batch.c:199 log_dmi_decoded(): read: dmstatus=0x430382 {version=0_13 anyresumeack=1 allresumeack=1 impebreak=1 authenticated=true anyhalted=1 allhalted=1}
Debug: 3178 1547 riscv_reg.c:781 riscv_reg_flush_all(): [riscv.cpu0] Flushing register cache
Debug: 3179 1547 riscv_reg.c:798 riscv_reg_flush_all(): [riscv.cpu0] Flush of register cache completed
Debug: 3180 1547 riscv.c:4081 riscv_openocd_poll(): [riscv.cpu0] should_remain_halted=0, should_resume=0
Debug: 3181 1547 riscv.c:4022 riscv_openocd_poll(): [riscv.cpu1] Polling all harts.
Debug: 3182 1547 riscv.c:3845 riscv_poll_hart(): [riscv.cpu1] polling, target->state=2
Debug: 3183 1547 batch.c:291 riscv_batch_run_from(): [riscv.cpu1] Running batch of scans [0, 2)
Debug: 3184 1547 batch.c:255 log_batch(): 40b w 00010001 @10 -> + 00000000 @00; 0i
Debug: 3185 1547 batch.c:199 log_dmi_decoded(): write: dmcontrol=0x10001 {dmactive=active hartsello=1}
Debug: 3186 1547 batch.c:255 log_batch(): 40b - 00000000 @00 -> + 00010001 @10; 0i
Debug: 3187 1547 batch.c:291 riscv_batch_run_from(): [riscv.cpu1] Running batch of scans [0, 2)
Debug: 3188 1547 batch.c:255 log_batch(): 40b r 00000000 @11 -> + 00000000 @00; 0i
Debug: 3189 1547 batch.c:255 log_batch(): 40b - 00000000 @00 -> + 00430382 @11; 0i
Debug: 3190 1547 batch.c:199 log_dmi_decoded(): read: dmstatus=0x430382 {version=0_13 anyresumeack=1 allresumeack=1 impebreak=1 authenticated=true anyhalted=1 allhalted=1}
Debug: 3191 1547 riscv_reg.c:781 riscv_reg_flush_all(): [riscv.cpu1] Flushing register cache
Debug: 3192 1547 riscv_reg.c:798 riscv_reg_flush_all(): [riscv.cpu1] Flush of register cache completed
Debug: 3193 1547 riscv.c:4081 riscv_openocd_poll(): [riscv.cpu1] should_remain_halted=0, should_resume=0
Debug: 3194 1553 gdb_server.c:408 gdb_log_incoming_packet(): [riscv.cpu1] {2} received packet: qRcmd,72697363762072657365745f64656c617973203133
Debug: 3195 1554 command.c:82 script_debug(): command - riscv reset_delays 13
Debug: 3196 1554 gdb_server.c:425 gdb_log_outgoing_packet(): [riscv.cpu1] {2} sending packet: $OK#9a
Debug: 3197 1605 gdb_server.c:408 gdb_log_incoming_packet(): [riscv.cpu1] {2} received packet: qXfer:threads:read::0,1000
Debug: 3198 1605 gdb_server.c:422 gdb_log_outgoing_packet(): [riscv.cpu1] {2} sending packet: $<binary-data-44-bytes>#02
Debug: 3199 1606 gdb_server.c:408 gdb_log_incoming_packet(): [riscv.cpu1] {2} received packet: m0,2
Debug: 3200 1606 gdb_server.c:1568 gdb_read_memory_packet(): addr: 0x0000000000000000, len: 0x00000002
Debug: 3201 1606 target.c:2472 target_read_buffer(): reading buffer of 2 byte at 0x00000000
Debug: 3202 1606 riscv_reg.c:979 riscv_reg_get(): [riscv.cpu1] Reading priv from target
Debug: 3203 1606 riscv_reg.c:979 riscv_reg_get(): [riscv.cpu1] Reading dcsr from target
Debug: 3204 1606 riscv-013.c:5109 riscv013_get_register(): [riscv.cpu1] reading register dcsr
Debug: 3205 1606 riscv-013.c:1633 register_read_direct(): [riscv.cpu1] Reading dcsr
Debug: 3206 1606 riscv-013.c:745 riscv013_execute_abstract_command(): [riscv.cpu1] access register=0x2207b0 {regno=0x7b0 write=arg0 transfer=enabled postexec=disabled aarpostincrement=disabled aarsize=32bit}
Debug: 3207 1606 batch.c:291 riscv_batch_run_from(): [riscv.cpu1] Running batch of scans [0, 3)
Debug: 3208 1607 batch.c:255 log_batch(): 40b w 002207b0 @17 -> + 00000000 @00; 4i
Debug: 3209 1607 batch.c:199 log_dmi_decoded(): write: command=0x2207b0 {control=0x2207b0}
Debug: 3210 1607 batch.c:255 log_batch(): 40b r 00000000 @16 -> + 002207b0 @17; 0i
Debug: 3211 1607 batch.c:255 log_batch(): 40b - 00000000 @00 -> + 02000002 @16; 0i
Debug: 3212 1607 batch.c:199 log_dmi_decoded(): read: abstractcs=0x2000002 {datacount=2 progbufsize=2}
Debug: 3213 1607 riscv-013.c:680 abstract_cmd_batch_check_and_clear_cmderr(): [riscv.cpu1] abstractcs=0x2000002 {datacount=2 relaxedpriv=full_checks busy=ready progbufsize=2 cmderr=none}
Debug: 3214 1607 batch.c:291 riscv_batch_run_from(): [riscv.cpu1] Running batch of scans [0, 2)
Debug: 3215 1607 batch.c:255 log_batch(): 40b r 00000000 @04 -> + 00000000 @00; 0i
Debug: 3216 1607 batch.c:255 log_batch(): 40b - 00000000 @00 -> + 4000b0c3 @04; 0i
Debug: 3217 1607 batch.c:199 log_dmi_decoded(): read: 
Debug: 3218 1607 riscv-013.c:1652 register_read_direct(): [riscv.cpu1] dcsr = 0x4000b0c3
Debug: 3219 1607 riscv_reg.c:988 riscv_reg_get(): [riscv.cpu1] Read dcsr: 0x4000b0c3
Debug: 3220 1607 riscv_reg.c:988 riscv_reg_get(): [riscv.cpu1] Read priv: 0x3
Debug: 3221 1607 riscv_reg.c:979 riscv_reg_get(): [riscv.cpu1] Reading priv from target
Debug: 3222 1607 riscv_reg.c:974 riscv_reg_get(): [riscv.cpu1] Read dcsr: 0x4000b0c3 (cached)
Debug: 3223 1607 riscv_reg.c:988 riscv_reg_get(): [riscv.cpu1] Read priv: 0x3
Debug: 3224 1607 riscv_reg.c:979 riscv_reg_get(): [riscv.cpu1] Reading mstatus from target
Debug: 3225 1607 riscv-013.c:5109 riscv013_get_register(): [riscv.cpu1] reading register mstatus
Debug: 3226 1607 riscv-013.c:1633 register_read_direct(): [riscv.cpu1] Reading mstatus
Debug: 3227 1607 riscv-013.c:745 riscv013_execute_abstract_command(): [riscv.cpu1] access register=0x320300 {regno=0x300 write=arg0 transfer=enabled postexec=disabled aarpostincrement=disabled aarsize=64bit}
Debug: 3228 1607 batch.c:291 riscv_batch_run_from(): [riscv.cpu1] Running batch of scans [0, 3)
Debug: 3229 1607 batch.c:255 log_batch(): 40b w 00320300 @17 -> + 00000000 @00; 4i
Debug: 3230 1607 batch.c:199 log_dmi_decoded(): write: command=0x320300 {control=0x320300}
Debug: 3231 1607 batch.c:255 log_batch(): 40b r 00000000 @16 -> + 00320300 @17; 0i
Debug: 3232 1608 batch.c:255 log_batch(): 40b - 00000000 @00 -> + 02000002 @16; 0i
Debug: 3233 1608 batch.c:199 log_dmi_decoded(): read: abstractcs=0x2000002 {datacount=2 progbufsize=2}
Debug: 3234 1608 riscv-013.c:680 abstract_cmd_batch_check_and_clear_cmderr(): [riscv.cpu1] abstractcs=0x2000002 {datacount=2 relaxedpriv=full_checks busy=ready progbufsize=2 cmderr=none}
Debug: 3235 1608 batch.c:291 riscv_batch_run_from(): [riscv.cpu1] Running batch of scans [0, 3)
Debug: 3236 1608 batch.c:255 log_batch(): 40b r 00000000 @04 -> + 00000000 @00; 0i
Debug: 3237 1608 batch.c:255 log_batch(): 40b r 00000000 @05 -> + 00000000 @04; 0i
Debug: 3238 1608 batch.c:199 log_dmi_decoded(): read: 
Debug: 3239 1608 batch.c:255 log_batch(): 40b - 00000000 @00 -> + 0000000a @05; 0i
Debug: 3240 1608 batch.c:199 log_dmi_decoded(): read: 
Debug: 3241 1608 riscv-013.c:1652 register_read_direct(): [riscv.cpu1] mstatus = 0xa00000000
Debug: 3242 1608 riscv_reg.c:988 riscv_reg_get(): [riscv.cpu1] Read mstatus: 0xa00000000
Debug: 3243 1608 riscv.c:3018 riscv_effective_privilege_mode(): [riscv.cpu1] Effective mode=3; v=0
Debug: 3244 1608 riscv.c:3078 riscv_mmu(): [riscv.cpu1] SATP/MMU ignored in Machine mode.
Debug: 3245 1608 riscv-013.c:4473 access_memory_progbuf(): [riscv.cpu1] reading 1 words of 2 bytes at 0x0
Debug: 3246 1608 program.c:33 riscv_program_write(): [riscv.cpu1] progbuf[00] = fence.i
Debug: 3247 1608 batch.c:291 riscv_batch_run_from(): [riscv.cpu1] Running batch of scans [0, 2)
Debug: 3248 1608 batch.c:255 log_batch(): 40b w 0000100f @20 -> + 00000000 @00; 0i
Debug: 3249 1608 batch.c:199 log_dmi_decoded(): write: 
Debug: 3250 1608 batch.c:255 log_batch(): 40b - 00000000 @00 -> + 0000100f @20; 0i
Debug: 3251 1608 program.c:33 riscv_program_write(): [riscv.cpu1] progbuf[01] = fence   rw,rw
Debug: 3252 1608 batch.c:291 riscv_batch_run_from(): [riscv.cpu1] Running batch of scans [0, 2)
Debug: 3253 1608 batch.c:255 log_batch(): 40b w 0330000f @21 -> + 00000000 @00; 0i
Debug: 3254 1608 batch.c:199 log_dmi_decoded(): write: 
Debug: 3255 1608 batch.c:255 log_batch(): 40b - 00000000 @00 -> + 0330000f @21; 0i
Debug: 3256 1609 riscv-013.c:471 decrement_reset_delays_counter(): [riscv.cpu1] resetting learned delays (reset_delays_wait counter expired)
Debug: 3257 1609 riscv-013.c:745 riscv013_execute_abstract_command(): [riscv.cpu1] access register=0x241000 {regno=0x1000 write=arg0 transfer=disabled postexec=enabled aarpostincrement=disabled aarsize=32bit}
Debug: 3258 1609 batch.c:291 riscv_batch_run_from(): [riscv.cpu1] Running batch of scans [0, 3)
Debug: 3259 1609 batch.c:255 log_batch(): 40b w 00241000 @17 -> + 00000000 @00; 0i
Debug: 3260 1609 batch.c:199 log_dmi_decoded(): write: command=0x241000 {control=0x241000}
Debug: 3261 1609 batch.c:255 log_batch(): 40b r 00000000 @16 -> + 00241000 @17; 0i
Debug: 3262 1609 batch.c:255 log_batch(): 40b - 00000000 @00 -> + 02001002 @16; 0i
Debug: 3263 1609 batch.c:199 log_dmi_decoded(): read: abstractcs=0x2001002 {datacount=2 busy=busy progbufsize=2}
Debug: 3264 1609 riscv-013.c:680 abstract_cmd_batch_check_and_clear_cmderr(): [riscv.cpu1] abstractcs=0x2001002 {datacount=2 relaxedpriv=full_checks busy=busy progbufsize=2 cmderr=none}
Debug: 3265 1609 batch.c:291 riscv_batch_run_from(): [riscv.cpu1] Running batch of scans [0, 2)
Debug: 3266 1609 batch.c:255 log_batch(): 40b r 00000000 @16 -> + 00000000 @00; 0i
Debug: 3267 1609 batch.c:255 log_batch(): 40b - 00000000 @00 -> + 02000002 @16; 0i
Debug: 3268 1609 batch.c:199 log_dmi_decoded(): read: abstractcs=0x2000002 {datacount=2 progbufsize=2}
Debug: 3269 1609 batch.h:86 riscv_scan_set_delay(): Abstract Command delay is set to 1.
Debug: 3270 1609 riscv-013.c:3058 execute_autofence(): [riscv.cpu1] Successfully executed fence.i and fence rw, rw
Debug: 3271 1609 riscv-013_reg.c:375 riscv013_reg_save(): [riscv.cpu1] Saving s1
Debug: 3272 1609 riscv_reg.c:974 riscv_reg_get(): [riscv.cpu1] Read s1: 0x108 (cached)
Debug: 3273 1609 program.c:33 riscv_program_write(): [riscv.cpu1] progbuf[00] = lh      s1, 0(s1)
Debug: 3274 1609 batch.c:291 riscv_batch_run_from(): [riscv.cpu1] Running batch of scans [0, 2)
Debug: 3275 1610 batch.c:255 log_batch(): 40b w 00049483 @20 -> + 00000000 @00; 0i
Debug: 3276 1610 batch.c:199 log_dmi_decoded(): write: 
Debug: 3277 1610 batch.c:255 log_batch(): 40b - 00000000 @00 -> + 00049483 @20; 0i
Debug: 3278 1610 program.c:33 riscv_program_write(): [riscv.cpu1] progbuf[01] = ebreak
Debug: 3279 1610 batch.c:291 riscv_batch_run_from(): [riscv.cpu1] Running batch of scans [0, 2)
Debug: 3280 1610 batch.c:255 log_batch(): 40b w 00100073 @21 -> + 00000000 @00; 0i
Debug: 3281 1610 batch.c:199 log_dmi_decoded(): write: 
Debug: 3282 1610 batch.c:255 log_batch(): 40b - 00000000 @00 -> + 00100073 @21; 0i
Debug: 3283 1610 batch.c:291 riscv_batch_run_from(): [riscv.cpu1] Running batch of scans [0, 2)
Debug: 3284 1610 batch.c:255 log_batch(): 40b w 00000000 @05 -> + 00000000 @00; 0i
Debug: 3285 1610 batch.c:199 log_dmi_decoded(): write: 
Debug: 3286 1610 batch.c:255 log_batch(): 40b - 00000000 @00 -> + 00000000 @05; 0i
Debug: 3287 1610 batch.c:291 riscv_batch_run_from(): [riscv.cpu1] Running batch of scans [0, 2)
Debug: 3288 1610 batch.c:255 log_batch(): 40b w 00000000 @04 -> + 00000000 @00; 0i
Debug: 3289 1610 batch.c:199 log_dmi_decoded(): write: 
Debug: 3290 1610 batch.c:255 log_batch(): 40b - 00000000 @00 -> + 00000000 @04; 0i
Debug: 3291 1610 riscv-013.c:745 riscv013_execute_abstract_command(): [riscv.cpu1] access register=0x371009 {regno=0x1009 write=register transfer=enabled postexec=enabled aarpostincrement=disabled aarsize=64bit}
Debug: 3292 1610 batch.c:291 riscv_batch_run_from(): [riscv.cpu1] Running batch of scans [0, 3)
Debug: 3293 1611 batch.c:255 log_batch(): 40b w 00371009 @17 -> + 00000000 @00; 1i
Debug: 3294 1611 batch.c:199 log_dmi_decoded(): write: command=0x371009 {control=0x371009}
Debug: 3295 1611 batch.c:255 log_batch(): 40b r 00000000 @16 -> + 00371009 @17; 0i
Debug: 3296 1611 batch.c:255 log_batch(): 40b - 00000000 @00 -> + 02001302 @16; 0i
Debug: 3297 1611 batch.c:199 log_dmi_decoded(): read: abstractcs=0x2001302 {datacount=2 busy=busy progbufsize=2 cmderr=exception}
Debug: 3298 1611 riscv-013.c:680 abstract_cmd_batch_check_and_clear_cmderr(): [riscv.cpu1] abstractcs=0x2001302 {datacount=2 relaxedpriv=full_checks busy=busy progbufsize=2 cmderr=exception}
Debug: 3299 1611 batch.c:291 riscv_batch_run_from(): [riscv.cpu1] Running batch of scans [0, 2)
Debug: 3300 1611 batch.c:255 log_batch(): 40b r 00000000 @16 -> + 00000000 @00; 0i
Debug: 3301 1611 batch.c:255 log_batch(): 40b - 00000000 @00 -> + 02000302 @16; 0i
Debug: 3302 1611 batch.c:199 log_dmi_decoded(): read: abstractcs=0x2000302 {datacount=2 progbufsize=2 cmderr=exception}
Debug: 3303 1611 batch.h:86 riscv_scan_set_delay(): Abstract Command delay is set to 2.
Debug: 3304 1611 riscv-013.c:702 abstract_cmd_batch_check_and_clear_cmderr(): [riscv.cpu1] Abstract Command execution failed (abstractcs.cmderr = 3).
Debug: 3305 1611 batch.c:291 riscv_batch_run_from(): [riscv.cpu1] Running batch of scans [0, 2)
Debug: 3306 1612 batch.c:255 log_batch(): 40b w 00000700 @16 -> + 00000000 @00; 0i
Debug: 3307 1612 batch.c:199 log_dmi_decoded(): write: abstractcs=0x700 {cmderr=other}
Debug: 3308 1612 batch.c:255 log_batch(): 40b - 00000000 @00 -> + 00000700 @16; 0i
Error: 3309 1612 riscv-013.c:4604 riscv013_access_memory(): [riscv.cpu1] Failed to read memory (addr=0x0)
  progbuf=failed (execute abstract failed), sysbus=disabled, abstract=disabled
Debug: 3310 1612 gdb_server.c:1530 gdb_error(): Reporting -4 to GDB as generic error
Debug: 3311 1612 gdb_server.c:425 gdb_log_outgoing_packet(): [riscv.cpu1] {2} sending packet: $E0E#ba
Debug: 3312 1612 gdb_server.c:408 gdb_log_incoming_packet(): [riscv.cpu1] {2} received packet: m80,40
Debug: 3313 1612 gdb_server.c:1568 gdb_read_memory_packet(): addr: 0x0000000000000080, len: 0x00000040
Debug: 3314 1612 target.c:2472 target_read_buffer(): reading buffer of 64 byte at 0x00000080
Debug: 3315 1612 riscv_reg.c:979 riscv_reg_get(): [riscv.cpu1] Reading priv from target
Debug: 3316 1612 riscv_reg.c:974 riscv_reg_get(): [riscv.cpu1] Read dcsr: 0x4000b0c3 (cached)
Debug: 3317 1612 riscv_reg.c:988 riscv_reg_get(): [riscv.cpu1] Read priv: 0x3
Debug: 3318 1612 riscv_reg.c:979 riscv_reg_get(): [riscv.cpu1] Reading priv from target
Debug: 3319 1612 riscv_reg.c:974 riscv_reg_get(): [riscv.cpu1] Read dcsr: 0x4000b0c3 (cached)
Debug: 3320 1612 riscv_reg.c:988 riscv_reg_get(): [riscv.cpu1] Read priv: 0x3
Debug: 3321 1612 riscv_reg.c:979 riscv_reg_get(): [riscv.cpu1] Reading mstatus from target
Debug: 3322 1612 riscv-013.c:5109 riscv013_get_register(): [riscv.cpu1] reading register mstatus
Debug: 3323 1612 riscv-013.c:1633 register_read_direct(): [riscv.cpu1] Reading mstatus
Debug: 3324 1612 riscv-013.c:745 riscv013_execute_abstract_command(): [riscv.cpu1] access register=0x320300 {regno=0x300 write=arg0 transfer=enabled postexec=disabled aarpostincrement=disabled aarsize=64bit}
Debug: 3325 1612 batch.c:291 riscv_batch_run_from(): [riscv.cpu1] Running batch of scans [0, 3)
Debug: 3326 1612 batch.c:255 log_batch(): 40b w 00320300 @17 -> + 00000000 @00; 2i
Debug: 3327 1612 batch.c:199 log_dmi_decoded(): write: command=0x320300 {control=0x320300}
Debug: 3328 1612 batch.c:255 log_batch(): 40b r 00000000 @16 -> + 00320300 @17; 0i
Debug: 3329 1612 batch.c:255 log_batch(): 40b - 00000000 @00 -> + 02000002 @16; 0i
Debug: 3330 1612 batch.c:199 log_dmi_decoded(): read: abstractcs=0x2000002 {datacount=2 progbufsize=2}
Debug: 3331 1612 riscv-013.c:680 abstract_cmd_batch_check_and_clear_cmderr(): [riscv.cpu1] abstractcs=0x2000002 {datacount=2 relaxedpriv=full_checks busy=ready progbufsize=2 cmderr=none}
Debug: 3332 1612 batch.c:291 riscv_batch_run_from(): [riscv.cpu1] Running batch of scans [0, 3)
Debug: 3333 1613 batch.c:255 log_batch(): 40b r 00000000 @04 -> + 00000000 @00; 0i
Debug: 3334 1613 batch.c:255 log_batch(): 40b r 00000000 @05 -> + 00000000 @04; 0i
Debug: 3335 1613 batch.c:199 log_dmi_decoded(): read: 
Debug: 3336 1613 batch.c:255 log_batch(): 40b - 00000000 @00 -> + 0000000a @05; 0i
Debug: 3337 1613 batch.c:199 log_dmi_decoded(): read: 
Debug: 3338 1613 riscv-013.c:1652 register_read_direct(): [riscv.cpu1] mstatus = 0xa00000000
Debug: 3339 1613 riscv_reg.c:988 riscv_reg_get(): [riscv.cpu1] Read mstatus: 0xa00000000
Debug: 3340 1613 riscv.c:3018 riscv_effective_privilege_mode(): [riscv.cpu1] Effective mode=3; v=0
Debug: 3341 1613 riscv.c:3078 riscv_mmu(): [riscv.cpu1] SATP/MMU ignored in Machine mode.
Debug: 3342 1613 riscv-013.c:4473 access_memory_progbuf(): [riscv.cpu1] reading 8 words of 8 bytes at 0x80
Debug: 3343 1613 program.c:33 riscv_program_write(): [riscv.cpu1] progbuf[00] = fence.i
Debug: 3344 1613 batch.c:291 riscv_batch_run_from(): [riscv.cpu1] Running batch of scans [0, 2)
Debug: 3345 1613 batch.c:255 log_batch(): 40b w 0000100f @20 -> + 00000000 @00; 0i
Debug: 3346 1613 batch.c:199 log_dmi_decoded(): write: 
Debug: 3347 1613 batch.c:255 log_batch(): 40b - 00000000 @00 -> + 0000100f @20; 0i
Debug: 3348 1613 program.c:33 riscv_program_write(): [riscv.cpu1] progbuf[01] = fence   rw,rw
Debug: 3349 1613 batch.c:291 riscv_batch_run_from(): [riscv.cpu1] Running batch of scans [0, 2)
Debug: 3350 1613 batch.c:255 log_batch(): 40b w 0330000f @21 -> + 00000000 @00; 0i
Debug: 3351 1613 batch.c:199 log_dmi_decoded(): write: 
Debug: 3352 1613 batch.c:255 log_batch(): 40b - 00000000 @00 -> + 0330000f @21; 0i
Debug: 3353 1613 riscv-013.c:745 riscv013_execute_abstract_command(): [riscv.cpu1] access register=0x241000 {regno=0x1000 write=arg0 transfer=disabled postexec=enabled aarpostincrement=disabled aarsize=32bit}
Debug: 3354 1613 batch.c:291 riscv_batch_run_from(): [riscv.cpu1] Running batch of scans [0, 3)
Debug: 3355 1614 batch.c:255 log_batch(): 40b w 00241000 @17 -> + 00000000 @00; 2i
Debug: 3356 1614 batch.c:199 log_dmi_decoded(): write: command=0x241000 {control=0x241000}
Debug: 3357 1614 batch.c:255 log_batch(): 40b r 00000000 @16 -> + 00241000 @17; 0i
Debug: 3358 1614 batch.c:255 log_batch(): 40b - 00000000 @00 -> + 02000002 @16; 0i
Debug: 3359 1614 batch.c:199 log_dmi_decoded(): read: abstractcs=0x2000002 {datacount=2 progbufsize=2}
Debug: 3360 1614 riscv-013.c:680 abstract_cmd_batch_check_and_clear_cmderr(): [riscv.cpu1] abstractcs=0x2000002 {datacount=2 relaxedpriv=full_checks busy=ready progbufsize=2 cmderr=none}
Debug: 3361 1614 riscv-013.c:3058 execute_autofence(): [riscv.cpu1] Successfully executed fence.i and fence rw, rw
Debug: 3362 1614 riscv-013_reg.c:375 riscv013_reg_save(): [riscv.cpu1] Saving fp
Debug: 3363 1614 riscv_reg.c:974 riscv_reg_get(): [riscv.cpu1] Read fp: 0x107 (cached)
Debug: 3364 1614 riscv-013_reg.c:375 riscv013_reg_save(): [riscv.cpu1] Saving s1
Debug: 3365 1614 riscv_reg.c:974 riscv_reg_get(): [riscv.cpu1] Read s1: 0x108 (cached)
Debug: 3366 1614 program.c:33 riscv_program_write(): [riscv.cpu1] progbuf[00] = ld      s1, 0(s0)
Debug: 3367 1614 batch.c:291 riscv_batch_run_from(): [riscv.cpu1] Running batch of scans [0, 2)
Debug: 3368 1614 batch.c:255 log_batch(): 40b w 00043483 @20 -> + 00000000 @00; 0i
Debug: 3369 1614 batch.c:199 log_dmi_decoded(): write: 
Debug: 3370 1614 batch.c:255 log_batch(): 40b - 00000000 @00 -> + 00043483 @20; 0i
Debug: 3371 1614 program.c:33 riscv_program_write(): [riscv.cpu1] progbuf[01] = addi    s0, s0, 8
Debug: 3372 1614 batch.c:291 riscv_batch_run_from(): [riscv.cpu1] Running batch of scans [0, 2)
Debug: 3373 1614 batch.c:255 log_batch(): 40b w 00840413 @21 -> + 00000000 @00; 0i
Debug: 3374 1614 batch.c:199 log_dmi_decoded(): write: 
Debug: 3375 1614 batch.c:255 log_batch(): 40b - 00000000 @00 -> + 00840413 @21; 0i
Debug: 3376 1614 riscv-013.c:1604 register_write_direct(): [riscv.cpu1] Writing 0x80 to fp
Debug: 3377 1614 riscv-013.c:976 register_write_abstract(): [riscv.cpu1] access register=0x331008 {regno=0x1008 write=register transfer=enabled postexec=disabled aarpostincrement=disabled aarsize=64bit}
Debug: 3378 1614 batch.c:291 riscv_batch_run_from(): [riscv.cpu1] Running batch of scans [0, 5)
Debug: 3379 1615 batch.c:255 log_batch(): 40b w 00000080 @04 -> + 00000000 @00; 0i
Debug: 3380 1615 batch.c:199 log_dmi_decoded(): write: 
Debug: 3381 1615 batch.c:255 log_batch(): 40b w 00000000 @05 -> + 00000080 @04; 0i
Debug: 3382 1615 batch.c:199 log_dmi_decoded(): write: 
Debug: 3383 1615 batch.c:255 log_batch(): 40b w 00331008 @17 -> + 00000000 @05; 2i
Debug: 3384 1615 batch.c:199 log_dmi_decoded(): write: command=0x331008 {control=0x331008}
Debug: 3385 1615 batch.c:255 log_batch(): 40b r 00000000 @16 -> + 00331008 @17; 0i
Debug: 3386 1615 batch.c:255 log_batch(): 40b - 00000000 @00 -> + 02000002 @16; 0i
Debug: 3387 1615 batch.c:199 log_dmi_decoded(): read: abstractcs=0x2000002 {datacount=2 progbufsize=2}
Debug: 3388 1615 riscv-013.c:680 abstract_cmd_batch_check_and_clear_cmderr(): [riscv.cpu1] abstractcs=0x2000002 {datacount=2 relaxedpriv=full_checks busy=ready progbufsize=2 cmderr=none}
Debug: 3389 1615 riscv-013.c:1623 register_write_direct(): [riscv.cpu1] fp <- 0x80
Debug: 3390 1615 riscv-013.c:745 riscv013_execute_abstract_command(): [riscv.cpu1] access register=0x361009 {regno=0x1009 write=arg0 transfer=enabled postexec=enabled aarpostincrement=disabled aarsize=64bit}
Debug: 3391 1615 batch.c:291 riscv_batch_run_from(): [riscv.cpu1] Running batch of scans [0, 3)
Debug: 3392 1616 batch.c:255 log_batch(): 40b w 00361009 @17 -> + 00000000 @00; 2i
Debug: 3393 1616 batch.c:199 log_dmi_decoded(): write: command=0x361009 {control=0x361009}
Debug: 3394 1616 batch.c:255 log_batch(): 40b r 00000000 @16 -> + 00361009 @17; 0i
Debug: 3395 1616 batch.c:255 log_batch(): 40b - 00000000 @00 -> + 02001302 @16; 0i
Debug: 3396 1616 batch.c:199 log_dmi_decoded(): read: abstractcs=0x2001302 {datacount=2 busy=busy progbufsize=2 cmderr=exception}
Debug: 3397 1616 riscv-013.c:680 abstract_cmd_batch_check_and_clear_cmderr(): [riscv.cpu1] abstractcs=0x2001302 {datacount=2 relaxedpriv=full_checks busy=busy progbufsize=2 cmderr=exception}
Debug: 3398 1616 batch.c:291 riscv_batch_run_from(): [riscv.cpu1] Running batch of scans [0, 2)
Debug: 3399 1616 batch.c:255 log_batch(): 40b r 00000000 @16 -> + 00000000 @00; 0i
Debug: 3400 1616 batch.c:255 log_batch(): 40b - 00000000 @00 -> + 02000302 @16; 0i
Debug: 3401 1616 batch.c:199 log_dmi_decoded(): read: abstractcs=0x2000302 {datacount=2 progbufsize=2 cmderr=exception}
Debug: 3402 1616 batch.h:86 riscv_scan_set_delay(): Abstract Command delay is set to 3.
Debug: 3403 1616 riscv-013.c:702 abstract_cmd_batch_check_and_clear_cmderr(): [riscv.cpu1] Abstract Command execution failed (abstractcs.cmderr = 3).
Debug: 3404 1616 batch.c:291 riscv_batch_run_from(): [riscv.cpu1] Running batch of scans [0, 2)
Debug: 3405 1616 batch.c:255 log_batch(): 40b w 00000700 @16 -> + 00000000 @00; 0i
Debug: 3406 1616 batch.c:199 log_dmi_decoded(): write: abstractcs=0x700 {cmderr=other}
Debug: 3407 1616 batch.c:255 log_batch(): 40b - 00000000 @00 -> + 00000700 @16; 0i
Error: 3408 1616 riscv-013.c:4604 riscv013_access_memory(): [riscv.cpu1] Failed to read memory (addr=0x80)
  progbuf=failed (progbuf startup failed), sysbus=disabled, abstract=disabled
Debug: 3409 1616 gdb_server.c:1530 gdb_error(): Reporting -4 to GDB as generic error
Debug: 3410 1616 gdb_server.c:425 gdb_log_outgoing_packet(): [riscv.cpu1] {2} sending packet: $E0E#ba
Debug: 3411 1616 gdb_server.c:408 gdb_log_incoming_packet(): [riscv.cpu1] {2} received packet: mbf,8
Debug: 3412 1616 gdb_server.c:1568 gdb_read_memory_packet(): addr: 0x00000000000000bf, len: 0x00000008
Debug: 3413 1616 target.c:2472 target_read_buffer(): reading buffer of 8 byte at 0x000000bf
Debug: 3414 1616 riscv_reg.c:979 riscv_reg_get(): [riscv.cpu1] Reading priv from target
Debug: 3415 1616 riscv_reg.c:974 riscv_reg_get(): [riscv.cpu1] Read dcsr: 0x4000b0c3 (cached)
Debug: 3416 1616 riscv_reg.c:988 riscv_reg_get(): [riscv.cpu1] Read priv: 0x3
Debug: 3417 1616 riscv_reg.c:979 riscv_reg_get(): [riscv.cpu1] Reading priv from target
Debug: 3418 1616 riscv_reg.c:974 riscv_reg_get(): [riscv.cpu1] Read dcsr: 0x4000b0c3 (cached)
Debug: 3419 1616 riscv_reg.c:988 riscv_reg_get(): [riscv.cpu1] Read priv: 0x3
Debug: 3420 1616 riscv_reg.c:979 riscv_reg_get(): [riscv.cpu1] Reading mstatus from target
Debug: 3421 1616 riscv-013.c:5109 riscv013_get_register(): [riscv.cpu1] reading register mstatus
Debug: 3422 1616 riscv-013.c:1633 register_read_direct(): [riscv.cpu1] Reading mstatus
Debug: 3423 1616 riscv-013.c:745 riscv013_execute_abstract_command(): [riscv.cpu1] access register=0x320300 {regno=0x300 write=arg0 transfer=enabled postexec=disabled aarpostincrement=disabled aarsize=64bit}
Debug: 3424 1616 batch.c:291 riscv_batch_run_from(): [riscv.cpu1] Running batch of scans [0, 3)
Debug: 3425 1617 batch.c:255 log_batch(): 40b w 00320300 @17 -> + 00000000 @00; 3i
Debug: 3426 1617 batch.c:199 log_dmi_decoded(): write: command=0x320300 {control=0x320300}
Debug: 3427 1617 batch.c:255 log_batch(): 40b r 00000000 @16 -> + 00320300 @17; 0i
Debug: 3428 1617 batch.c:255 log_batch(): 40b - 00000000 @00 -> + 02000002 @16; 0i
Debug: 3429 1617 batch.c:199 log_dmi_decoded(): read: abstractcs=0x2000002 {datacount=2 progbufsize=2}
Debug: 3430 1617 riscv-013.c:680 abstract_cmd_batch_check_and_clear_cmderr(): [riscv.cpu1] abstractcs=0x2000002 {datacount=2 relaxedpriv=full_checks busy=ready progbufsize=2 cmderr=none}
Debug: 3431 1617 batch.c:291 riscv_batch_run_from(): [riscv.cpu1] Running batch of scans [0, 3)
Debug: 3432 1617 batch.c:255 log_batch(): 40b r 00000000 @04 -> + 00000000 @00; 0i
Debug: 3433 1617 batch.c:255 log_batch(): 40b r 00000000 @05 -> + 00000000 @04; 0i
Debug: 3434 1617 batch.c:199 log_dmi_decoded(): read: 
Debug: 3435 1617 batch.c:255 log_batch(): 40b - 00000000 @00 -> + 0000000a @05; 0i
Debug: 3436 1617 batch.c:199 log_dmi_decoded(): read: 
Debug: 3437 1617 riscv-013.c:1652 register_read_direct(): [riscv.cpu1] mstatus = 0xa00000000
Debug: 3438 1617 riscv_reg.c:988 riscv_reg_get(): [riscv.cpu1] Read mstatus: 0xa00000000
Debug: 3439 1617 riscv.c:3018 riscv_effective_privilege_mode(): [riscv.cpu1] Effective mode=3; v=0
Debug: 3440 1617 riscv.c:3078 riscv_mmu(): [riscv.cpu1] SATP/MMU ignored in Machine mode.
Debug: 3441 1617 riscv-013.c:4473 access_memory_progbuf(): [riscv.cpu1] reading 1 words of 1 bytes at 0xbf
Debug: 3442 1617 program.c:33 riscv_program_write(): [riscv.cpu1] progbuf[00] = fence.i
Debug: 3443 1617 batch.c:291 riscv_batch_run_from(): [riscv.cpu1] Running batch of scans [0, 2)
Debug: 3444 1618 batch.c:255 log_batch(): 40b w 0000100f @20 -> + 00000000 @00; 0i
Debug: 3445 1618 batch.c:199 log_dmi_decoded(): write: 
Debug: 3446 1618 batch.c:255 log_batch(): 40b - 00000000 @00 -> + 0000100f @20; 0i
Debug: 3447 1618 program.c:33 riscv_program_write(): [riscv.cpu1] progbuf[01] = fence   rw,rw
Debug: 3448 1618 batch.c:291 riscv_batch_run_from(): [riscv.cpu1] Running batch of scans [0, 2)
Debug: 3449 1618 batch.c:255 log_batch(): 40b w 0330000f @21 -> + 00000000 @00; 0i
Debug: 3450 1618 batch.c:199 log_dmi_decoded(): write: 
Debug: 3451 1618 batch.c:255 log_batch(): 40b - 00000000 @00 -> + 0330000f @21; 0i
Debug: 3452 1618 riscv-013.c:745 riscv013_execute_abstract_command(): [riscv.cpu1] access register=0x241000 {regno=0x1000 write=arg0 transfer=disabled postexec=enabled aarpostincrement=disabled aarsize=32bit}
Debug: 3453 1618 batch.c:291 riscv_batch_run_from(): [riscv.cpu1] Running batch of scans [0, 3)
Debug: 3454 1618 batch.c:255 log_batch(): 40b w 00241000 @17 -> + 00000000 @00; 3i
Debug: 3455 1618 batch.c:199 log_dmi_decoded(): write: command=0x241000 {control=0x241000}
Debug: 3456 1618 batch.c:255 log_batch(): 40b r 00000000 @16 -> + 00241000 @17; 0i
Debug: 3457 1618 batch.c:255 log_batch(): 40b - 00000000 @00 -> + 02000002 @16; 0i
Debug: 3458 1618 batch.c:199 log_dmi_decoded(): read: abstractcs=0x2000002 {datacount=2 progbufsize=2}
Debug: 3459 1618 riscv-013.c:680 abstract_cmd_batch_check_and_clear_cmderr(): [riscv.cpu1] abstractcs=0x2000002 {datacount=2 relaxedpriv=full_checks busy=ready progbufsize=2 cmderr=none}
Debug: 3460 1618 riscv-013.c:3058 execute_autofence(): [riscv.cpu1] Successfully executed fence.i and fence rw, rw
Debug: 3461 1618 riscv-013_reg.c:375 riscv013_reg_save(): [riscv.cpu1] Saving s1
Debug: 3462 1618 riscv_reg.c:974 riscv_reg_get(): [riscv.cpu1] Read s1: 0x108 (cached)
Debug: 3463 1618 program.c:33 riscv_program_write(): [riscv.cpu1] progbuf[00] = lb      s1, 0(s1)
Debug: 3464 1618 batch.c:291 riscv_batch_run_from(): [riscv.cpu1] Running batch of scans [0, 2)
Debug: 3465 1619 batch.c:255 log_batch(): 40b w 00048483 @20 -> + 00000000 @00; 0i
Debug: 3466 1619 batch.c:199 log_dmi_decoded(): write: 
Debug: 3467 1619 batch.c:255 log_batch(): 40b - 00000000 @00 -> + 00048483 @20; 0i
Debug: 3468 1619 program.c:33 riscv_program_write(): [riscv.cpu1] progbuf[01] = ebreak
Debug: 3469 1619 batch.c:291 riscv_batch_run_from(): [riscv.cpu1] Running batch of scans [0, 2)
Debug: 3470 1619 batch.c:255 log_batch(): 40b w 00100073 @21 -> + 00000000 @00; 0i
Debug: 3471 1619 batch.c:199 log_dmi_decoded(): write: 
Debug: 3472 1619 batch.c:255 log_batch(): 40b - 00000000 @00 -> + 00100073 @21; 0i
Debug: 3473 1619 batch.c:291 riscv_batch_run_from(): [riscv.cpu1] Running batch of scans [0, 2)
Debug: 3474 1619 batch.c:255 log_batch(): 40b w 00000000 @05 -> + 00000000 @00; 0i
Debug: 3475 1619 batch.c:199 log_dmi_decoded(): write: 
Debug: 3476 1619 batch.c:255 log_batch(): 40b - 00000000 @00 -> + 00000000 @05; 0i
Debug: 3477 1619 batch.c:291 riscv_batch_run_from(): [riscv.cpu1] Running batch of scans [0, 2)
Debug: 3478 1619 batch.c:255 log_batch(): 40b w 000000bf @04 -> + 00000000 @00; 0i
Debug: 3479 1619 batch.c:199 log_dmi_decoded(): write: 
Debug: 3480 1619 batch.c:255 log_batch(): 40b - 00000000 @00 -> + 000000bf @04; 0i
Debug: 3481 1619 riscv-013.c:745 riscv013_execute_abstract_command(): [riscv.cpu1] access register=0x371009 {regno=0x1009 write=register transfer=enabled postexec=enabled aarpostincrement=disabled aarsize=64bit}
Debug: 3482 1619 batch.c:291 riscv_batch_run_from(): [riscv.cpu1] Running batch of scans [0, 3)
Debug: 3483 1620 batch.c:255 log_batch(): 40b w 00371009 @17 -> + 00000000 @00; 3i
Debug: 3484 1620 batch.c:199 log_dmi_decoded(): write: command=0x371009 {control=0x371009}
Debug: 3485 1620 batch.c:255 log_batch(): 40b r 00000000 @16 -> + 00371009 @17; 0i
Debug: 3486 1620 batch.c:255 log_batch(): 40b - 00000000 @00 -> + 02001302 @16; 0i
Debug: 3487 1620 batch.c:199 log_dmi_decoded(): read: abstractcs=0x2001302 {datacount=2 busy=busy progbufsize=2 cmderr=exception}
Debug: 3488 1620 riscv-013.c:680 abstract_cmd_batch_check_and_clear_cmderr(): [riscv.cpu1] abstractcs=0x2001302 {datacount=2 relaxedpriv=full_checks busy=busy progbufsize=2 cmderr=exception}
Debug: 3489 1620 batch.c:291 riscv_batch_run_from(): [riscv.cpu1] Running batch of scans [0, 2)
Debug: 3490 1620 batch.c:255 log_batch(): 40b r 00000000 @16 -> + 00000000 @00; 0i
Debug: 3491 1620 batch.c:255 log_batch(): 40b - 00000000 @00 -> + 02000302 @16; 0i
Debug: 3492 1620 batch.c:199 log_dmi_decoded(): read: abstractcs=0x2000302 {datacount=2 progbufsize=2 cmderr=exception}
Debug: 3493 1620 batch.h:86 riscv_scan_set_delay(): Abstract Command delay is set to 4.
Debug: 3494 1620 riscv-013.c:702 abstract_cmd_batch_check_and_clear_cmderr(): [riscv.cpu1] Abstract Command execution failed (abstractcs.cmderr = 3).
Debug: 3495 1620 batch.c:291 riscv_batch_run_from(): [riscv.cpu1] Running batch of scans [0, 2)
Debug: 3496 1621 batch.c:255 log_batch(): 40b w 00000700 @16 -> + 00000000 @00; 0i
Debug: 3497 1621 batch.c:199 log_dmi_decoded(): write: abstractcs=0x700 {cmderr=other}
Debug: 3498 1621 batch.c:255 log_batch(): 40b - 00000000 @00 -> + 00000700 @16; 0i
Error: 3499 1621 riscv-013.c:4604 riscv013_access_memory(): [riscv.cpu1] Failed to read memory (addr=0xbf)
  progbuf=failed (execute abstract failed), sysbus=disabled, abstract=disabled
Debug: 3500 1621 gdb_server.c:1530 gdb_error(): Reporting -4 to GDB as generic error
Debug: 3501 1621 gdb_server.c:425 gdb_log_outgoing_packet(): [riscv.cpu1] {2} sending packet: $E0E#ba
Debug: 3502 1654 riscv.c:4022 riscv_openocd_poll(): [riscv.cpu0] Polling all harts.
Debug: 3503 1654 riscv.c:3845 riscv_poll_hart(): [riscv.cpu0] polling, target->state=2
Debug: 3504 1654 batch.c:291 riscv_batch_run_from(): [riscv.cpu0] Running batch of scans [0, 2)
Debug: 3505 1654 batch.c:255 log_batch(): 40b w 00000001 @10 -> + 00000000 @00; 0i
Debug: 3506 1654 batch.c:199 log_dmi_decoded(): write: dmcontrol=1 {dmactive=active}
Debug: 3507 1654 batch.c:255 log_batch(): 40b - 00000000 @00 -> + 00000001 @10; 0i
Debug: 3508 1654 batch.c:291 riscv_batch_run_from(): [riscv.cpu0] Running batch of scans [0, 2)
Debug: 3509 1655 batch.c:255 log_batch(): 40b r 00000000 @11 -> + 00000000 @00; 0i
Debug: 3510 1655 batch.c:255 log_batch(): 40b - 00000000 @00 -> + 00430382 @11; 0i
Debug: 3511 1655 batch.c:199 log_dmi_decoded(): read: dmstatus=0x430382 {version=0_13 anyresumeack=1 allresumeack=1 impebreak=1 authenticated=true anyhalted=1 allhalted=1}
Debug: 3512 1655 riscv_reg.c:781 riscv_reg_flush_all(): [riscv.cpu0] Flushing register cache
Debug: 3513 1655 riscv_reg.c:798 riscv_reg_flush_all(): [riscv.cpu0] Flush of register cache completed
Debug: 3514 1655 riscv.c:4081 riscv_openocd_poll(): [riscv.cpu0] should_remain_halted=0, should_resume=0
Debug: 3515 1655 riscv.c:4022 riscv_openocd_poll(): [riscv.cpu1] Polling all harts.
Debug: 3516 1655 riscv.c:3845 riscv_poll_hart(): [riscv.cpu1] polling, target->state=2
Debug: 3517 1655 batch.c:291 riscv_batch_run_from(): [riscv.cpu1] Running batch of scans [0, 2)
Debug: 3518 1655 batch.c:255 log_batch(): 40b w 00010001 @10 -> + 00000000 @00; 0i
Debug: 3519 1655 batch.c:199 log_dmi_decoded(): write: dmcontrol=0x10001 {dmactive=active hartsello=1}
Debug: 3520 1655 batch.c:255 log_batch(): 40b - 00000000 @00 -> + 00010001 @10; 0i
Debug: 3521 1655 batch.c:291 riscv_batch_run_from(): [riscv.cpu1] Running batch of scans [0, 2)
Debug: 3522 1655 batch.c:255 log_batch(): 40b r 00000000 @11 -> + 00000000 @00; 0i
Debug: 3523 1655 batch.c:255 log_batch(): 40b - 00000000 @00 -> + 00430382 @11; 0i
Debug: 3524 1655 batch.c:199 log_dmi_decoded(): read: dmstatus=0x430382 {version=0_13 anyresumeack=1 allresumeack=1 impebreak=1 authenticated=true anyhalted=1 allhalted=1}
Debug: 3525 1655 riscv.c:4081 riscv_openocd_poll(): [riscv.cpu1] should_remain_halted=0, should_resume=0
Debug: 3526 1673 gdb_server.c:408 gdb_log_incoming_packet(): [riscv.cpu1] {2} received packet: qRcmd,72697363762072657365745f64656c617973203833
Debug: 3527 1673 command.c:82 script_debug(): command - riscv reset_delays 83
Debug: 3528 1673 gdb_server.c:425 gdb_log_outgoing_packet(): [riscv.cpu1] {2} sending packet: $OK#9a
Debug: 3529 1726 gdb_server.c:408 gdb_log_incoming_packet(): [riscv.cpu1] {2} received packet: P20=f401341212000000
Debug: 3530 1726 riscv.c:3513 riscv_get_gdb_reg_list_internal(): [riscv.cpu1] reg_class=0, read=0
Debug: 3531 1726 riscv-013_reg.c:51 riscv013_reg_set(): [riscv.cpu1] Write 0x00000012123401f4 to pc (valid=0).
Debug: 3532 1726 riscv_reg.c:856 riscv_set_or_write_register(): [riscv.cpu1] Writing to target: dpc <- 0x12123401f4 (cacheable=false, valid=true, dirty=false)
Debug: 3533 1726 riscv-013.c:5125 riscv013_set_register(): [riscv.cpu1] writing 0x12123401f4 to register dpc
Debug: 3534 1726 riscv-013.c:1604 register_write_direct(): [riscv.cpu1] Writing 0x12123401f4 to dpc
Debug: 3535 1726 riscv-013.c:976 register_write_abstract(): [riscv.cpu1] access register=0x3307b1 {regno=0x7b1 write=register transfer=enabled postexec=disabled aarpostincrement=disabled aarsize=64bit}
Debug: 3536 1726 batch.c:291 riscv_batch_run_from(): [riscv.cpu1] Running batch of scans [0, 5)
Debug: 3537 1730 batch.c:255 log_batch(): 40b w 123401f4 @04 -> + 00000000 @00; 0i
Debug: 3538 1730 batch.c:199 log_dmi_decoded(): write: 
Debug: 3539 1730 batch.c:255 log_batch(): 40b w 00000012 @05 -> + 123401f4 @04; 0i
Debug: 3540 1730 batch.c:199 log_dmi_decoded(): write: 
Debug: 3541 1730 batch.c:255 log_batch(): 40b w 003307b1 @17 -> + 00000012 @05; 4i
Debug: 3542 1730 batch.c:199 log_dmi_decoded(): write: command=0x3307b1 {control=0x3307b1}
Debug: 3543 1730 batch.c:255 log_batch(): 40b r 00000000 @16 -> + 003307b1 @17; 0i
Debug: 3544 1730 batch.c:255 log_batch(): 40b - 00000000 @00 -> + 02000002 @16; 0i
Debug: 3545 1730 batch.c:199 log_dmi_decoded(): read: abstractcs=0x2000002 {datacount=2 progbufsize=2}
Debug: 3546 1730 riscv-013.c:680 abstract_cmd_batch_check_and_clear_cmderr(): [riscv.cpu1] abstractcs=0x2000002 {datacount=2 relaxedpriv=full_checks busy=ready progbufsize=2 cmderr=none}
Debug: 3547 1730 riscv-013.c:1623 register_write_direct(): [riscv.cpu1] dpc <- 0x12123401f4
Debug: 3548 1730 riscv_reg.c:872 riscv_set_or_write_register(): [riscv.cpu1] Wrote 0x12123401f4 to dpc (cacheable=false, valid=false, dirty=false)
Debug: 3549 1730 gdb_server.c:425 gdb_log_outgoing_packet(): [riscv.cpu1] {2} sending packet: $OK#9a
Debug: 3550 1730 gdb_server.c:408 gdb_log_incoming_packet(): [riscv.cpu1] {2} received packet: g
Debug: 3551 1730 riscv.c:3513 riscv_get_gdb_reg_list_internal(): [riscv.cpu1] reg_class=1, read=1
Debug: 3552 1730 riscv_reg.c:979 riscv_reg_get(): [riscv.cpu1] Reading dpc from target
Debug: 3553 1730 riscv-013.c:5109 riscv013_get_register(): [riscv.cpu1] reading register dpc
Debug: 3554 1730 riscv-013.c:1633 register_read_direct(): [riscv.cpu1] Reading dpc
Debug: 3555 1730 riscv-013.c:745 riscv013_execute_abstract_command(): [riscv.cpu1] access register=0x3207b1 {regno=0x7b1 write=arg0 transfer=enabled postexec=disabled aarpostincrement=disabled aarsize=64bit}
Debug: 3556 1730 batch.c:291 riscv_batch_run_from(): [riscv.cpu1] Running batch of scans [0, 3)
Debug: 3557 1731 batch.c:255 log_batch(): 40b w 003207b1 @17 -> + 00000000 @00; 4i
Debug: 3558 1731 batch.c:199 log_dmi_decoded(): write: command=0x3207b1 {control=0x3207b1}
Debug: 3559 1731 batch.c:255 log_batch(): 40b r 00000000 @16 -> + 003207b1 @17; 0i
Debug: 3560 1731 batch.c:255 log_batch(): 40b - 00000000 @00 -> + 02000002 @16; 0i
Debug: 3561 1731 batch.c:199 log_dmi_decoded(): read: abstractcs=0x2000002 {datacount=2 progbufsize=2}
Debug: 3562 1731 riscv-013.c:680 abstract_cmd_batch_check_and_clear_cmderr(): [riscv.cpu1] abstractcs=0x2000002 {datacount=2 relaxedpriv=full_checks busy=ready progbufsize=2 cmderr=none}
Debug: 3563 1731 batch.c:291 riscv_batch_run_from(): [riscv.cpu1] Running batch of scans [0, 3)
Debug: 3564 1731 batch.c:255 log_batch(): 40b r 00000000 @04 -> + 00000000 @00; 0i
Debug: 3565 1731 batch.c:255 log_batch(): 40b r 00000000 @05 -> + 123401f4 @04; 0i
Debug: 3566 1731 batch.c:199 log_dmi_decoded(): read: 
Debug: 3567 1731 batch.c:255 log_batch(): 40b - 00000000 @00 -> + 00000012 @05; 0i
Debug: 3568 1731 batch.c:199 log_dmi_decoded(): read: 
Debug: 3569 1731 riscv-013.c:1652 register_read_direct(): [riscv.cpu1] dpc = 0x12123401f4
Debug: 3570 1731 riscv_reg.c:988 riscv_reg_get(): [riscv.cpu1] Read dpc: 0x12123401f4
Debug: 3571 1731 riscv-013_reg.c:40 riscv013_reg_get(): [riscv.cpu1] Read 0x00000012123401f4 from pc (valid=0).
Debug: 3572 1731 riscv_reg.c:974 riscv_reg_get(): [riscv.cpu1] Read dpc: 0x12123401f4 (cached)
Debug: 3573 1731 riscv-013_reg.c:40 riscv013_reg_get(): [riscv.cpu1] Read 0x00000012123401f4 from pc (valid=0).
Debug: 3574 1731 gdb_server.c:425 gdb_log_outgoing_packet(): [riscv.cpu1] {2} sending packet: $000000000000000000010000000000000101000000000000020100000000000003010000000000000401000000000000050100000000000006010000000000000701000000000000080100000000000009010000000000000a010000000000000b010000000000000c010000000000000d010000000000000e010000000000000f0100000000000010010000000000001101000000000000120100000000000013010000000000001401000000000000150100000000000016010000000000001701000000000000180100000000000019010000000000001a010000000000001b010000000000001c010000000000001d010000000000001e01000000000000f401341212000000#04
Debug: 3575 1732 gdb_server.c:408 gdb_log_incoming_packet(): [riscv.cpu1] {2} received packet: m0,2
Debug: 3576 1732 gdb_server.c:1568 gdb_read_memory_packet(): addr: 0x0000000000000000, len: 0x00000002
Debug: 3577 1732 target.c:2472 target_read_buffer(): reading buffer of 2 byte at 0x00000000
Debug: 3578 1732 riscv_reg.c:979 riscv_reg_get(): [riscv.cpu1] Reading priv from target
Debug: 3579 1732 riscv_reg.c:974 riscv_reg_get(): [riscv.cpu1] Read dcsr: 0x4000b0c3 (cached)
Debug: 3580 1732 riscv_reg.c:988 riscv_reg_get(): [riscv.cpu1] Read priv: 0x3
Debug: 3581 1732 riscv_reg.c:979 riscv_reg_get(): [riscv.cpu1] Reading priv from target
Debug: 3582 1732 riscv_reg.c:974 riscv_reg_get(): [riscv.cpu1] Read dcsr: 0x4000b0c3 (cached)
Debug: 3583 1732 riscv_reg.c:988 riscv_reg_get(): [riscv.cpu1] Read priv: 0x3
Debug: 3584 1732 riscv_reg.c:979 riscv_reg_get(): [riscv.cpu1] Reading mstatus from target
Debug: 3585 1732 riscv-013.c:5109 riscv013_get_register(): [riscv.cpu1] reading register mstatus
Debug: 3586 1732 riscv-013.c:1633 register_read_direct(): [riscv.cpu1] Reading mstatus
Debug: 3587 1732 riscv-013.c:745 riscv013_execute_abstract_command(): [riscv.cpu1] access register=0x320300 {regno=0x300 write=arg0 transfer=enabled postexec=disabled aarpostincrement=disabled aarsize=64bit}
Debug: 3588 1732 batch.c:291 riscv_batch_run_from(): [riscv.cpu1] Running batch of scans [0, 3)
Debug: 3589 1732 batch.c:255 log_batch(): 40b w 00320300 @17 -> + 00000000 @00; 4i
Debug: 3590 1732 batch.c:199 log_dmi_decoded(): write: command=0x320300 {control=0x320300}
Debug: 3591 1732 batch.c:255 log_batch(): 40b r 00000000 @16 -> + 00320300 @17; 0i
Debug: 3592 1732 batch.c:255 log_batch(): 40b - 00000000 @00 -> + 02000002 @16; 0i
Debug: 3593 1732 batch.c:199 log_dmi_decoded(): read: abstractcs=0x2000002 {datacount=2 progbufsize=2}
Debug: 3594 1732 riscv-013.c:680 abstract_cmd_batch_check_and_clear_cmderr(): [riscv.cpu1] abstractcs=0x2000002 {datacount=2 relaxedpriv=full_checks busy=ready progbufsize=2 cmderr=none}
Debug: 3595 1732 batch.c:291 riscv_batch_run_from(): [riscv.cpu1] Running batch of scans [0, 3)
Debug: 3596 1732 batch.c:255 log_batch(): 40b r 00000000 @04 -> + 00000000 @00; 0i
Debug: 3597 1732 batch.c:255 log_batch(): 40b r 00000000 @05 -> + 00000000 @04; 0i
Debug: 3598 1732 batch.c:199 log_dmi_decoded(): read: 
Debug: 3599 1732 batch.c:255 log_batch(): 40b - 00000000 @00 -> + 0000000a @05; 0i
Debug: 3600 1732 batch.c:199 log_dmi_decoded(): read: 
Debug: 3601 1732 riscv-013.c:1652 register_read_direct(): [riscv.cpu1] mstatus = 0xa00000000
Debug: 3602 1732 riscv_reg.c:988 riscv_reg_get(): [riscv.cpu1] Read mstatus: 0xa00000000
Debug: 3603 1732 riscv.c:3018 riscv_effective_privilege_mode(): [riscv.cpu1] Effective mode=3; v=0
Debug: 3604 1732 riscv.c:3078 riscv_mmu(): [riscv.cpu1] SATP/MMU ignored in Machine mode.
Debug: 3605 1732 riscv-013.c:4473 access_memory_progbuf(): [riscv.cpu1] reading 1 words of 2 bytes at 0x0
Debug: 3606 1732 program.c:33 riscv_program_write(): [riscv.cpu1] progbuf[00] = fence.i
Debug: 3607 1732 batch.c:291 riscv_batch_run_from(): [riscv.cpu1] Running batch of scans [0, 2)
Debug: 3608 1733 batch.c:255 log_batch(): 40b w 0000100f @20 -> + 00000000 @00; 0i
Debug: 3609 1733 batch.c:199 log_dmi_decoded(): write: 
Debug: 3610 1733 batch.c:255 log_batch(): 40b - 00000000 @00 -> + 0000100f @20; 0i
Debug: 3611 1733 program.c:33 riscv_program_write(): [riscv.cpu1] progbuf[01] = fence   rw,rw
Debug: 3612 1733 batch.c:291 riscv_batch_run_from(): [riscv.cpu1] Running batch of scans [0, 2)
Debug: 3613 1733 batch.c:255 log_batch(): 40b w 0330000f @21 -> + 00000000 @00; 0i
Debug: 3614 1733 batch.c:199 log_dmi_decoded(): write: 
Debug: 3615 1733 batch.c:255 log_batch(): 40b - 00000000 @00 -> + 0330000f @21; 0i
Debug: 3616 1733 riscv-013.c:745 riscv013_execute_abstract_command(): [riscv.cpu1] access register=0x241000 {regno=0x1000 write=arg0 transfer=disabled postexec=enabled aarpostincrement=disabled aarsize=32bit}
Debug: 3617 1733 batch.c:291 riscv_batch_run_from(): [riscv.cpu1] Running batch of scans [0, 3)
Debug: 3618 1735 batch.c:255 log_batch(): 40b w 00241000 @17 -> + 00000000 @00; 4i
Debug: 3619 1735 batch.c:199 log_dmi_decoded(): write: command=0x241000 {control=0x241000}
Debug: 3620 1735 batch.c:255 log_batch(): 40b r 00000000 @16 -> + 00241000 @17; 0i
Debug: 3621 1735 batch.c:255 log_batch(): 40b - 00000000 @00 -> + 02000002 @16; 0i
Debug: 3622 1735 batch.c:199 log_dmi_decoded(): read: abstractcs=0x2000002 {datacount=2 progbufsize=2}
Debug: 3623 1735 riscv-013.c:680 abstract_cmd_batch_check_and_clear_cmderr(): [riscv.cpu1] abstractcs=0x2000002 {datacount=2 relaxedpriv=full_checks busy=ready progbufsize=2 cmderr=none}
Debug: 3624 1735 riscv-013.c:3058 execute_autofence(): [riscv.cpu1] Successfully executed fence.i and fence rw, rw
Debug: 3625 1735 riscv-013_reg.c:375 riscv013_reg_save(): [riscv.cpu1] Saving s1
Debug: 3626 1735 riscv_reg.c:974 riscv_reg_get(): [riscv.cpu1] Read s1: 0x108 (cached)
Debug: 3627 1735 program.c:33 riscv_program_write(): [riscv.cpu1] progbuf[00] = lh      s1, 0(s1)
Debug: 3628 1735 batch.c:291 riscv_batch_run_from(): [riscv.cpu1] Running batch of scans [0, 2)
Debug: 3629 1736 batch.c:255 log_batch(): 40b w 00049483 @20 -> + 00000000 @00; 0i
Debug: 3630 1736 batch.c:199 log_dmi_decoded(): write: 
Debug: 3631 1736 batch.c:255 log_batch(): 40b - 00000000 @00 -> + 00049483 @20; 0i
Debug: 3632 1736 program.c:33 riscv_program_write(): [riscv.cpu1] progbuf[01] = ebreak
Debug: 3633 1736 batch.c:291 riscv_batch_run_from(): [riscv.cpu1] Running batch of scans [0, 2)
Debug: 3634 1736 batch.c:255 log_batch(): 40b w 00100073 @21 -> + 00000000 @00; 0i
Debug: 3635 1736 batch.c:199 log_dmi_decoded(): write: 
Debug: 3636 1736 batch.c:255 log_batch(): 40b - 00000000 @00 -> + 00100073 @21; 0i
Debug: 3637 1736 batch.c:291 riscv_batch_run_from(): [riscv.cpu1] Running batch of scans [0, 2)
Debug: 3638 1736 batch.c:255 log_batch(): 40b w 00000000 @05 -> + 00000000 @00; 0i
Debug: 3639 1736 batch.c:199 log_dmi_decoded(): write: 
Debug: 3640 1736 batch.c:255 log_batch(): 40b - 00000000 @00 -> + 00000000 @05; 0i
Debug: 3641 1736 batch.c:291 riscv_batch_run_from(): [riscv.cpu1] Running batch of scans [0, 2)
Debug: 3642 1737 batch.c:255 log_batch(): 40b w 00000000 @04 -> + 00000000 @00; 0i
Debug: 3643 1737 batch.c:199 log_dmi_decoded(): write: 
Debug: 3644 1737 batch.c:255 log_batch(): 40b - 00000000 @00 -> + 00000000 @04; 0i
Debug: 3645 1737 riscv-013.c:745 riscv013_execute_abstract_command(): [riscv.cpu1] access register=0x371009 {regno=0x1009 write=register transfer=enabled postexec=enabled aarpostincrement=disabled aarsize=64bit}
Debug: 3646 1737 batch.c:291 riscv_batch_run_from(): [riscv.cpu1] Running batch of scans [0, 3)
Debug: 3647 1737 batch.c:255 log_batch(): 40b w 00371009 @17 -> + 00000000 @00; 4i
Debug: 3648 1737 batch.c:199 log_dmi_decoded(): write: command=0x371009 {control=0x371009}
Debug: 3649 1737 batch.c:255 log_batch(): 40b r 00000000 @16 -> + 00371009 @17; 0i
Debug: 3650 1737 batch.c:255 log_batch(): 40b - 00000000 @00 -> + 02000302 @16; 0i
Debug: 3651 1737 batch.c:199 log_dmi_decoded(): read: abstractcs=0x2000302 {datacount=2 progbufsize=2 cmderr=exception}
Debug: 3652 1737 riscv-013.c:680 abstract_cmd_batch_check_and_clear_cmderr(): [riscv.cpu1] abstractcs=0x2000302 {datacount=2 relaxedpriv=full_checks busy=ready progbufsize=2 cmderr=exception}
Debug: 3653 1737 riscv-013.c:702 abstract_cmd_batch_check_and_clear_cmderr(): [riscv.cpu1] Abstract Command execution failed (abstractcs.cmderr = 3).
Debug: 3654 1737 batch.c:291 riscv_batch_run_from(): [riscv.cpu1] Running batch of scans [0, 2)
Debug: 3655 1738 batch.c:255 log_batch(): 40b w 00000700 @16 -> + 00000000 @00; 0i
Debug: 3656 1738 batch.c:199 log_dmi_decoded(): write: abstractcs=0x700 {cmderr=other}
Debug: 3657 1738 batch.c:255 log_batch(): 40b - 00000000 @00 -> + 00000700 @16; 0i
Error: 3658 1738 riscv-013.c:4604 riscv013_access_memory(): [riscv.cpu1] Failed to read memory (addr=0x0)
  progbuf=failed (execute abstract failed), sysbus=disabled, abstract=disabled
Debug: 3659 1738 gdb_server.c:1530 gdb_error(): Reporting -4 to GDB as generic error
Debug: 3660 1738 gdb_server.c:425 gdb_log_outgoing_packet(): [riscv.cpu1] {2} sending packet: $E0E#ba
Debug: 3661 1773 riscv.c:4022 riscv_openocd_poll(): [riscv.cpu0] Polling all harts.
Debug: 3662 1773 riscv.c:3845 riscv_poll_hart(): [riscv.cpu0] polling, target->state=2
Debug: 3663 1773 batch.c:291 riscv_batch_run_from(): [riscv.cpu0] Running batch of scans [0, 2)
Debug: 3664 1774 batch.c:255 log_batch(): 40b w 00000001 @10 -> + 00000000 @00; 0i
Debug: 3665 1774 batch.c:199 log_dmi_decoded(): write: dmcontrol=1 {dmactive=active}
Debug: 3666 1774 batch.c:255 log_batch(): 40b - 00000000 @00 -> + 00000001 @10; 0i
Debug: 3667 1774 batch.c:291 riscv_batch_run_from(): [riscv.cpu0] Running batch of scans [0, 2)
Debug: 3668 1775 batch.c:255 log_batch(): 40b r 00000000 @11 -> + 00000000 @00; 0i
Debug: 3669 1775 batch.c:255 log_batch(): 40b - 00000000 @00 -> + 00430382 @11; 0i
Debug: 3670 1775 batch.c:199 log_dmi_decoded(): read: dmstatus=0x430382 {version=0_13 anyresumeack=1 allresumeack=1 impebreak=1 authenticated=true anyhalted=1 allhalted=1}
Debug: 3671 1775 riscv_reg.c:781 riscv_reg_flush_all(): [riscv.cpu0] Flushing register cache
Debug: 3672 1775 riscv_reg.c:798 riscv_reg_flush_all(): [riscv.cpu0] Flush of register cache completed
Debug: 3673 1775 riscv.c:4081 riscv_openocd_poll(): [riscv.cpu0] should_remain_halted=0, should_resume=0
Debug: 3674 1775 riscv.c:4022 riscv_openocd_poll(): [riscv.cpu1] Polling all harts.
Debug: 3675 1775 riscv.c:3845 riscv_poll_hart(): [riscv.cpu1] polling, target->state=2
Debug: 3676 1775 batch.c:291 riscv_batch_run_from(): [riscv.cpu1] Running batch of scans [0, 2)
Debug: 3677 1775 batch.c:255 log_batch(): 40b w 00010001 @10 -> + 00000000 @00; 0i
Debug: 3678 1775 batch.c:199 log_dmi_decoded(): write: dmcontrol=0x10001 {dmactive=active hartsello=1}
Debug: 3679 1775 batch.c:255 log_batch(): 40b - 00000000 @00 -> + 00010001 @10; 0i
Debug: 3680 1775 batch.c:291 riscv_batch_run_from(): [riscv.cpu1] Running batch of scans [0, 2)
Debug: 3681 1775 batch.c:255 log_batch(): 40b r 00000000 @11 -> + 00000000 @00; 0i
Debug: 3682 1777 batch.c:255 log_batch(): 40b - 00000000 @00 -> + 00430382 @11; 0i
Debug: 3683 1777 batch.c:199 log_dmi_decoded(): read: dmstatus=0x430382 {version=0_13 anyresumeack=1 allresumeack=1 impebreak=1 authenticated=true anyhalted=1 allhalted=1}
Debug: 3684 1777 riscv.c:4081 riscv_openocd_poll(): [riscv.cpu1] should_remain_halted=0, should_resume=0
Debug: 3685 1791 gdb_server.c:408 gdb_log_incoming_packet(): [riscv.cpu0] {1} received packet: qRcmd,72697363762072657365745f64656c61797320313531
Debug: 3686 1792 command.c:82 script_debug(): command - riscv reset_delays 151
Debug: 3687 1792 gdb_server.c:425 gdb_log_outgoing_packet(): [riscv.cpu0] {1} sending packet: $OK#9a
Debug: 3688 1845 gdb_server.c:408 gdb_log_incoming_packet(): [riscv.cpu0] {1} received packet: qRcmd,746172676574732030
Debug: 3689 1845 riscv.c:4022 riscv_openocd_poll(): [riscv.cpu0] Polling all harts.
Debug: 3690 1845 riscv.c:3845 riscv_poll_hart(): [riscv.cpu0] polling, target->state=2
Debug: 3691 1845 batch.c:291 riscv_batch_run_from(): [riscv.cpu0] Running batch of scans [0, 2)
Debug: 3692 1847 batch.c:255 log_batch(): 40b w 00000001 @10 -> + 00000000 @00; 0i
Debug: 3693 1847 batch.c:199 log_dmi_decoded(): write: dmcontrol=1 {dmactive=active}
Debug: 3694 1847 batch.c:255 log_batch(): 40b - 00000000 @00 -> + 00000001 @10; 0i
Debug: 3695 1847 batch.c:291 riscv_batch_run_from(): [riscv.cpu0] Running batch of scans [0, 2)
Debug: 3696 1848 batch.c:255 log_batch(): 40b r 00000000 @11 -> + 00000000 @00; 0i
Debug: 3697 1848 batch.c:255 log_batch(): 40b - 00000000 @00 -> + 00430382 @11; 0i
Debug: 3698 1848 batch.c:199 log_dmi_decoded(): read: dmstatus=0x430382 {version=0_13 anyresumeack=1 allresumeack=1 impebreak=1 authenticated=true anyhalted=1 allhalted=1}
Debug: 3699 1848 riscv_reg.c:781 riscv_reg_flush_all(): [riscv.cpu0] Flushing register cache
Debug: 3700 1848 riscv_reg.c:798 riscv_reg_flush_all(): [riscv.cpu0] Flush of register cache completed
Debug: 3701 1848 riscv.c:4081 riscv_openocd_poll(): [riscv.cpu0] should_remain_halted=0, should_resume=0
Debug: 3702 1848 riscv.c:4022 riscv_openocd_poll(): [riscv.cpu1] Polling all harts.
Debug: 3703 1848 riscv.c:3845 riscv_poll_hart(): [riscv.cpu1] polling, target->state=2
Debug: 3704 1848 batch.c:291 riscv_batch_run_from(): [riscv.cpu1] Running batch of scans [0, 2)
Debug: 3705 1848 batch.c:255 log_batch(): 40b w 00010001 @10 -> + 00000000 @00; 0i
Debug: 3706 1848 batch.c:199 log_dmi_decoded(): write: dmcontrol=0x10001 {dmactive=active hartsello=1}
Debug: 3707 1848 batch.c:255 log_batch(): 40b - 00000000 @00 -> + 00010001 @10; 0i
Debug: 3708 1848 batch.c:291 riscv_batch_run_from(): [riscv.cpu1] Running batch of scans [0, 2)
Debug: 3709 1848 batch.c:255 log_batch(): 40b r 00000000 @11 -> + 00000000 @00; 0i
Debug: 3710 1848 batch.c:255 log_batch(): 40b - 00000000 @00 -> + 00430382 @11; 0i
Debug: 3711 1848 batch.c:199 log_dmi_decoded(): read: dmstatus=0x430382 {version=0_13 anyresumeack=1 allresumeack=1 impebreak=1 authenticated=true anyhalted=1 allhalted=1}
Debug: 3712 1848 riscv_reg.c:781 riscv_reg_flush_all(): [riscv.cpu1] Flushing register cache
Debug: 3713 1849 riscv_reg.c:792 riscv_reg_flush_all(): [riscv.cpu1] s1 is dirty; write back 0x108
Debug: 3714 1849 riscv_reg.c:856 riscv_set_or_write_register(): [riscv.cpu1] Writing to target: s1 <- 0x108 (cacheable=true, valid=true, dirty=true)
Debug: 3715 1849 riscv-013.c:5125 riscv013_set_register(): [riscv.cpu1] writing 0x108 to register s1
Debug: 3716 1849 riscv-013.c:1604 register_write_direct(): [riscv.cpu1] Writing 0x108 to s1
Debug: 3717 1849 riscv-013.c:976 register_write_abstract(): [riscv.cpu1] access register=0x331009 {regno=0x1009 write=register transfer=enabled postexec=disabled aarpostincrement=disabled aarsize=64bit}
Debug: 3718 1849 batch.c:291 riscv_batch_run_from(): [riscv.cpu1] Running batch of scans [0, 5)
Debug: 3719 1849 batch.c:255 log_batch(): 40b w 00000108 @04 -> + 00000000 @00; 0i
Debug: 3720 1849 batch.c:199 log_dmi_decoded(): write: 
Debug: 3721 1849 batch.c:255 log_batch(): 40b w 00000000 @05 -> + 00000108 @04; 0i
Debug: 3722 1850 batch.c:199 log_dmi_decoded(): write: 
Debug: 3723 1850 batch.c:255 log_batch(): 40b w 00331009 @17 -> + 00000000 @05; 4i
Debug: 3724 1850 batch.c:199 log_dmi_decoded(): write: command=0x331009 {control=0x331009}
Debug: 3725 1850 batch.c:255 log_batch(): 40b r 00000000 @16 -> + 00331009 @17; 0i
Debug: 3726 1850 batch.c:255 log_batch(): 40b - 00000000 @00 -> + 02000002 @16; 0i
Debug: 3727 1850 batch.c:199 log_dmi_decoded(): read: abstractcs=0x2000002 {datacount=2 progbufsize=2}
Debug: 3728 1850 riscv-013.c:680 abstract_cmd_batch_check_and_clear_cmderr(): [riscv.cpu1] abstractcs=0x2000002 {datacount=2 relaxedpriv=full_checks busy=ready progbufsize=2 cmderr=none}
Debug: 3729 1850 riscv-013.c:1623 register_write_direct(): [riscv.cpu1] s1 <- 0x108
Debug: 3730 1850 riscv_reg.c:872 riscv_set_or_write_register(): [riscv.cpu1] Wrote 0x108 to s1 (cacheable=true, valid=true, dirty=false)
Debug: 3731 1850 riscv_reg.c:792 riscv_reg_flush_all(): [riscv.cpu1] fp is dirty; write back 0x107
Debug: 3732 1850 riscv_reg.c:856 riscv_set_or_write_register(): [riscv.cpu1] Writing to target: fp <- 0x107 (cacheable=true, valid=true, dirty=true)
Debug: 3733 1850 riscv-013.c:5125 riscv013_set_register(): [riscv.cpu1] writing 0x107 to register fp
Debug: 3734 1850 riscv-013.c:1604 register_write_direct(): [riscv.cpu1] Writing 0x107 to fp
Debug: 3735 1850 riscv-013.c:976 register_write_abstract(): [riscv.cpu1] access register=0x331008 {regno=0x1008 write=register transfer=enabled postexec=disabled aarpostincrement=disabled aarsize=64bit}
Debug: 3736 1850 batch.c:291 riscv_batch_run_from(): [riscv.cpu1] Running batch of scans [0, 5)
Debug: 3737 1851 batch.c:255 log_batch(): 40b w 00000107 @04 -> + 00000000 @00; 0i
Debug: 3738 1851 batch.c:199 log_dmi_decoded(): write: 
Debug: 3739 1851 batch.c:255 log_batch(): 40b w 00000000 @05 -> + 00000107 @04; 0i
Debug: 3740 1851 batch.c:199 log_dmi_decoded(): write: 
Debug: 3741 1851 batch.c:255 log_batch(): 40b w 00331008 @17 -> + 00000000 @05; 4i
Debug: 3742 1851 batch.c:199 log_dmi_decoded(): write: command=0x331008 {control=0x331008}
Debug: 3743 1851 batch.c:255 log_batch(): 40b r 00000000 @16 -> + 00331008 @17; 0i
Debug: 3744 1852 batch.c:255 log_batch(): 40b - 00000000 @00 -> + 02000002 @16; 0i
Debug: 3745 1852 batch.c:199 log_dmi_decoded(): read: abstractcs=0x2000002 {datacount=2 progbufsize=2}
Debug: 3746 1852 riscv-013.c:680 abstract_cmd_batch_check_and_clear_cmderr(): [riscv.cpu1] abstractcs=0x2000002 {datacount=2 relaxedpriv=full_checks busy=ready progbufsize=2 cmderr=none}
Debug: 3747 1852 riscv-013.c:1623 register_write_direct(): [riscv.cpu1] fp <- 0x107
Debug: 3748 1852 riscv_reg.c:872 riscv_set_or_write_register(): [riscv.cpu1] Wrote 0x107 to fp (cacheable=true, valid=true, dirty=false)
Debug: 3749 1852 riscv_reg.c:798 riscv_reg_flush_all(): [riscv.cpu1] Flush of register cache completed
Debug: 3750 1852 riscv.c:4081 riscv_openocd_poll(): [riscv.cpu1] should_remain_halted=0, should_resume=0
Debug: 3751 1852 command.c:82 script_debug(): command - targets 0
Debug: 3752 1852 gdb_server.c:425 gdb_log_outgoing_packet(): [riscv.cpu0] {1} sending packet: $OK#9a
Debug: 3753 1904 gdb_server.c:408 gdb_log_incoming_packet(): [riscv.cpu0] {1} received packet: qRcmd,72697363762072657365745f64656c617973203331
Debug: 3754 1904 riscv.c:4022 riscv_openocd_poll(): [riscv.cpu0] Polling all harts.
Debug: 3755 1904 riscv.c:3845 riscv_poll_hart(): [riscv.cpu0] polling, target->state=2
Debug: 3756 1904 batch.c:291 riscv_batch_run_from(): [riscv.cpu0] Running batch of scans [0, 2)
Debug: 3757 1905 batch.c:255 log_batch(): 40b w 00000001 @10 -> + 00000000 @00; 0i
Debug: 3758 1905 batch.c:199 log_dmi_decoded(): write: dmcontrol=1 {dmactive=active}
Debug: 3759 1905 batch.c:255 log_batch(): 40b - 00000000 @00 -> + 00000001 @10; 0i
Debug: 3760 1905 batch.c:291 riscv_batch_run_from(): [riscv.cpu0] Running batch of scans [0, 2)
Debug: 3761 1905 batch.c:255 log_batch(): 40b r 00000000 @11 -> + 00000000 @00; 0i
Debug: 3762 1905 batch.c:255 log_batch(): 40b - 00000000 @00 -> + 00430382 @11; 0i
Debug: 3763 1905 batch.c:199 log_dmi_decoded(): read: dmstatus=0x430382 {version=0_13 anyresumeack=1 allresumeack=1 impebreak=1 authenticated=true anyhalted=1 allhalted=1}
Debug: 3764 1905 riscv_reg.c:781 riscv_reg_flush_all(): [riscv.cpu0] Flushing register cache
Debug: 3765 1905 riscv_reg.c:798 riscv_reg_flush_all(): [riscv.cpu0] Flush of register cache completed
Debug: 3766 1905 riscv.c:4081 riscv_openocd_poll(): [riscv.cpu0] should_remain_halted=0, should_resume=0
Debug: 3767 1905 riscv.c:4022 riscv_openocd_poll(): [riscv.cpu1] Polling all harts.
Debug: 3768 1905 riscv.c:3845 riscv_poll_hart(): [riscv.cpu1] polling, target->state=2
Debug: 3769 1905 batch.c:291 riscv_batch_run_from(): [riscv.cpu1] Running batch of scans [0, 2)
Debug: 3770 1906 batch.c:255 log_batch(): 40b w 00010001 @10 -> + 00000000 @00; 0i
Debug: 3771 1906 batch.c:199 log_dmi_decoded(): write: dmcontrol=0x10001 {dmactive=active hartsello=1}
Debug: 3772 1906 batch.c:255 log_batch(): 40b - 00000000 @00 -> + 00010001 @10; 0i
Debug: 3773 1906 batch.c:291 riscv_batch_run_from(): [riscv.cpu1] Running batch of scans [0, 2)
Debug: 3774 1907 batch.c:255 log_batch(): 40b r 00000000 @11 -> + 00000000 @00; 0i
Debug: 3775 1908 batch.c:255 log_batch(): 40b - 00000000 @00 -> + 00430382 @11; 0i
Debug: 3776 1908 batch.c:199 log_dmi_decoded(): read: dmstatus=0x430382 {version=0_13 anyresumeack=1 allresumeack=1 impebreak=1 authenticated=true anyhalted=1 allhalted=1}
Debug: 3777 1908 riscv_reg.c:781 riscv_reg_flush_all(): [riscv.cpu1] Flushing register cache
Debug: 3778 1908 riscv_reg.c:798 riscv_reg_flush_all(): [riscv.cpu1] Flush of register cache completed
Debug: 3779 1908 riscv.c:4081 riscv_openocd_poll(): [riscv.cpu1] should_remain_halted=0, should_resume=0
Debug: 3780 1908 command.c:82 script_debug(): command - riscv reset_delays 31
Debug: 3781 1908 gdb_server.c:425 gdb_log_outgoing_packet(): [riscv.cpu0] {1} sending packet: $OK#9a
Debug: 3782 1962 gdb_server.c:408 gdb_log_incoming_packet(): [riscv.cpu0] {1} received packet: X1212340000,0:
Debug: 3783 1962 gdb_server.c:425 gdb_log_outgoing_packet(): [riscv.cpu0] {1} sending packet: $OK#9a
Debug: 3784 1963 gdb_server.c:408 gdb_log_incoming_packet(): [riscv.cpu0] {1} received packet: X1212340000,cb4:o
Debug: 3785 1963 gdb_server.c:425 gdb_log_outgoing_packet(): [riscv.cpu0] {1} sending packet: $OK#9a
Debug: 3786 1963 gdb_server.c:1716 gdb_write_memory_binary_packet(): addr: 0x1212340000, len: 0x00000cb4
Debug: 3787 1963 target.c:2407 target_write_buffer(): writing buffer of 3252 byte at 0x1212340000
Debug: 3788 1963 riscv_reg.c:979 riscv_reg_get(): [riscv.cpu0] Reading priv from target
Debug: 3789 1963 riscv_reg.c:974 riscv_reg_get(): [riscv.cpu0] Read dcsr: 0x4000b0c3 (cached)
Debug: 3790 1963 riscv_reg.c:988 riscv_reg_get(): [riscv.cpu0] Read priv: 0x3
Debug: 3791 1963 riscv_reg.c:979 riscv_reg_get(): [riscv.cpu0] Reading priv from target
Debug: 3792 1963 riscv_reg.c:974 riscv_reg_get(): [riscv.cpu0] Read dcsr: 0x4000b0c3 (cached)
Debug: 3793 1963 riscv_reg.c:988 riscv_reg_get(): [riscv.cpu0] Read priv: 0x3
Debug: 3794 1963 riscv_reg.c:979 riscv_reg_get(): [riscv.cpu0] Reading mstatus from target
Debug: 3795 1963 riscv-013.c:5109 riscv013_get_register(): [riscv.cpu0] reading register mstatus
Debug: 3796 1963 batch.c:291 riscv_batch_run_from(): [riscv.cpu0] Running batch of scans [0, 2)
Debug: 3797 1967 batch.c:255 log_batch(): 40b w 00000001 @10 -> + 00000000 @00; 0i
Debug: 3798 1967 batch.c:199 log_dmi_decoded(): write: dmcontrol=1 {dmactive=active}
Debug: 3799 1967 batch.c:255 log_batch(): 40b - 00000000 @00 -> + 00000001 @10; 0i
Debug: 3800 1967 riscv-013.c:1633 register_read_direct(): [riscv.cpu0] Reading mstatus
Debug: 3801 1967 riscv-013.c:745 riscv013_execute_abstract_command(): [riscv.cpu0] access register=0x320300 {regno=0x300 write=arg0 transfer=enabled postexec=disabled aarpostincrement=disabled aarsize=64bit}
Debug: 3802 1967 batch.c:291 riscv_batch_run_from(): [riscv.cpu0] Running batch of scans [0, 3)
Debug: 3803 1968 batch.c:255 log_batch(): 40b w 00320300 @17 -> + 00000000 @00; 4i
Debug: 3804 1968 batch.c:199 log_dmi_decoded(): write: command=0x320300 {control=0x320300}
Debug: 3805 1968 batch.c:255 log_batch(): 40b r 00000000 @16 -> + 00320300 @17; 0i
Debug: 3806 1968 batch.c:255 log_batch(): 40b - 00000000 @00 -> + 02000002 @16; 0i
Debug: 3807 1968 batch.c:199 log_dmi_decoded(): read: abstractcs=0x2000002 {datacount=2 progbufsize=2}
Debug: 3808 1968 riscv-013.c:680 abstract_cmd_batch_check_and_clear_cmderr(): [riscv.cpu0] abstractcs=0x2000002 {datacount=2 relaxedpriv=full_checks busy=ready progbufsize=2 cmderr=none}
Debug: 3809 1968 batch.c:291 riscv_batch_run_from(): [riscv.cpu0] Running batch of scans [0, 3)
Debug: 3810 1972 batch.c:255 log_batch(): 40b r 00000000 @04 -> + 00000000 @00; 0i
Debug: 3811 1972 batch.c:255 log_batch(): 40b r 00000000 @05 -> + 00000000 @04; 0i
Debug: 3812 1972 batch.c:199 log_dmi_decoded(): read: 
Debug: 3813 1972 batch.c:255 log_batch(): 40b - 00000000 @00 -> + 0000000a @05; 0i
Debug: 3814 1972 batch.c:199 log_dmi_decoded(): read: 
Debug: 3815 1972 riscv-013.c:1652 register_read_direct(): [riscv.cpu0] mstatus = 0xa00000000
Debug: 3816 1972 riscv_reg.c:988 riscv_reg_get(): [riscv.cpu0] Read mstatus: 0xa00000000
Debug: 3817 1972 riscv.c:3018 riscv_effective_privilege_mode(): [riscv.cpu0] Effective mode=3; v=0
Debug: 3818 1972 riscv.c:3078 riscv_mmu(): [riscv.cpu0] SATP/MMU ignored in Machine mode.
Debug: 3819 1972 riscv-013.c:4473 access_memory_progbuf(): [riscv.cpu0] writing 406 words of 8 bytes at 0x1212340000
Debug: 3820 1972 riscv-013_reg.c:375 riscv013_reg_save(): [riscv.cpu0] Saving fp
Debug: 3821 1972 riscv_reg.c:974 riscv_reg_get(): [riscv.cpu0] Read fp: 0x7 (cached)
Debug: 3822 1972 riscv-013_reg.c:375 riscv013_reg_save(): [riscv.cpu0] Saving s1
Debug: 3823 1972 riscv_reg.c:974 riscv_reg_get(): [riscv.cpu0] Read s1: 0x8 (cached)
Debug: 3824 1972 program.c:33 riscv_program_write(): [riscv.cpu0] progbuf[00] = sd      s1, 0(s0)
Debug: 3825 1972 batch.c:291 riscv_batch_run_from(): [riscv.cpu0] Running batch of scans [0, 2)
Debug: 3826 1973 batch.c:255 log_batch(): 40b w 00943023 @20 -> + 00000000 @00; 0i
Debug: 3827 1973 batch.c:199 log_dmi_decoded(): write: 
Debug: 3828 1973 batch.c:255 log_batch(): 40b - 00000000 @00 -> + 00943023 @20; 0i
Debug: 3829 1973 program.c:33 riscv_program_write(): [riscv.cpu0] progbuf[01] = addi    s0, s0, 8
Debug: 3830 1973 batch.c:291 riscv_batch_run_from(): [riscv.cpu0] Running batch of scans [0, 2)
Debug: 3831 1978 batch.c:255 log_batch(): 40b w 00840413 @21 -> + 00000000 @00; 0i
Debug: 3832 1978 batch.c:199 log_dmi_decoded(): write: 
Debug: 3833 1978 batch.c:255 log_batch(): 40b - 00000000 @00 -> + 00840413 @21; 0i
Debug: 3834 1978 riscv-013.c:1604 register_write_direct(): [riscv.cpu0] Writing 0x1212340000 to fp
Debug: 3835 1978 riscv-013.c:976 register_write_abstract(): [riscv.cpu0] access register=0x331008 {regno=0x1008 write=register transfer=enabled postexec=disabled aarpostincrement=disabled aarsize=64bit}
Debug: 3836 1978 batch.c:291 riscv_batch_run_from(): [riscv.cpu0] Running batch of scans [0, 5)
Debug: 3837 1980 batch.c:255 log_batch(): 40b w 12340000 @04 -> + 00000000 @00; 0i
Debug: 3838 1980 batch.c:199 log_dmi_decoded(): write: 
Debug: 3839 1980 batch.c:255 log_batch(): 40b w 00000012 @05 -> + 12340000 @04; 0i
Debug: 3840 1980 batch.c:199 log_dmi_decoded(): write: 
Debug: 3841 1980 batch.c:255 log_batch(): 40b w 00331008 @17 -> + 00000012 @05; 4i
Debug: 3842 1980 batch.c:199 log_dmi_decoded(): write: command=0x331008 {control=0x331008}
Debug: 3843 1980 batch.c:255 log_batch(): 40b r 00000000 @16 -> + 00331008 @17; 0i
Debug: 3844 1980 batch.c:255 log_batch(): 40b - 00000000 @00 -> + 02000002 @16; 0i
Debug: 3845 1980 batch.c:199 log_dmi_decoded(): read: abstractcs=0x2000002 {datacount=2 progbufsize=2}
Debug: 3846 1980 riscv-013.c:680 abstract_cmd_batch_check_and_clear_cmderr(): [riscv.cpu0] abstractcs=0x2000002 {datacount=2 relaxedpriv=full_checks busy=ready progbufsize=2 cmderr=none}
Debug: 3847 1980 riscv-013.c:1623 register_write_direct(): [riscv.cpu0] fp <- 0x1212340000
Debug: 3848 1980 batch.c:291 riscv_batch_run_from(): [riscv.cpu0] Running batch of scans [0, 2)
Debug: 3849 1982 batch.c:255 log_batch(): 40b w 0000006f @05 -> + 00000000 @00; 0i
Debug: 3850 1982 batch.c:199 log_dmi_decoded(): write: 
Debug: 3851 1982 batch.c:255 log_batch(): 40b - 00000000 @00 -> + 0000006f @05; 0i
Debug: 3852 1982 batch.c:291 riscv_batch_run_from(): [riscv.cpu0] Running batch of scans [0, 2)
Debug: 3853 1985 batch.c:255 log_batch(): 40b w 00c0006f @04 -> + 00000000 @00; 0i
Debug: 3854 1985 batch.c:199 log_dmi_decoded(): write: 
Debug: 3855 1985 batch.c:255 log_batch(): 40b - 00000000 @00 -> + 00c0006f @04; 0i
Debug: 3856 1985 riscv-013.c:745 riscv013_execute_abstract_command(): [riscv.cpu0] access register=0x371009 {regno=0x1009 write=register transfer=enabled postexec=enabled aarpostincrement=disabled aarsize=64bit}
Debug: 3857 1985 batch.c:291 riscv_batch_run_from(): [riscv.cpu0] Running batch of scans [0, 3)
Debug: 3858 1990 batch.c:255 log_batch(): 40b w 00371009 @17 -> + 00000000 @00; 4i
Debug: 3859 1990 batch.c:199 log_dmi_decoded(): write: command=0x371009 {control=0x371009}
Debug: 3860 1990 batch.c:255 log_batch(): 40b r 00000000 @16 -> + 00371009 @17; 0i
Debug: 3861 1990 batch.c:255 log_batch(): 40b - 00000000 @00 -> + 02000002 @16; 0i
Debug: 3862 1990 batch.c:199 log_dmi_decoded(): read: abstractcs=0x2000002 {datacount=2 progbufsize=2}
Debug: 3863 1990 riscv-013.c:680 abstract_cmd_batch_check_and_clear_cmderr(): [riscv.cpu0] abstractcs=0x2000002 {datacount=2 relaxedpriv=full_checks busy=ready progbufsize=2 cmderr=none}
Debug: 3864 1990 riscv-013.c:3126 log_memory_access64(): M[0x1212340000] writes 0x0000006f00c0006f
Debug: 3865 1990 batch.c:291 riscv_batch_run_from(): [riscv.cpu0] Running batch of scans [0, 2)
Debug: 3866 1992 batch.c:255 log_batch(): 40b w 00000001 @18 -> + 00000000 @00; 0i
Debug: 3867 1992 batch.c:199 log_dmi_decoded(): write: 
Debug: 3868 1992 batch.c:255 log_batch(): 40b - 00000000 @00 -> + 00000001 @18; 0i
Debug: 3869 1992 riscv-013.c:3126 log_memory_access64(): M[0x1212340008] writes 0x000002970c80006f
Debug: 3870 1992 riscv-013.c:3126 log_memory_access64(): M[0x1212340010] writes 0x3052907304428293
Debug: 3871 1992 riscv-013.c:3126 log_memory_access64(): M[0x1212340018] writes 0x3010237330005073
Debug: 3872 1992 riscv-013.c:3126 log_memory_access64(): M[0x1212340020] writes 0x0143939300100393
Debug: 3873 1992 riscv-013.c:3126 log_memory_access64(): M[0x1212340028] writes 0x00701c63007373b3
Debug: 3874 1992 riscv-013.c:3126 log_memory_access64(): M[0x1212340030] writes 0x0123939300100393
Debug: 3875 1992 riscv-013.c:3126 log_memory_access64(): M[0x1212340038] writes 0x00701463007373b3
Debug: 3876 1992 riscv-013.c:3126 log_memory_access64(): M[0x1212340040] writes 0x3030507300c0006f
Debug: 3877 1992 riscv-013.c:3126 log_memory_access64(): M[0x1212340048] writes 0x3040507330205073
Debug: 3878 1992 riscv-013.c:3126 log_memory_access64(): M[0x1212340050] writes 0x0802829300000297
Debug: 3879 1992 riscv-013.c:3126 log_memory_access64(): M[0x1212340058] writes 0x3000507330529073
Debug: 3880 1992 riscv-013.c:3126 log_memory_access64(): M[0x1212340060] writes 0xa381819300002197
Debug: 3881 1992 riscv-013.c:3126 log_memory_access64(): M[0x1212340068] writes 0xc881011300001117
Debug: 3882 1992 riscv-013.c:3126 log_memory_access64(): M[0x1212340070] writes 0xf14022f32d000313
Debug: 3883 1992 riscv-013.c:3126 log_memory_access64(): M[0x1212340078] writes 0x0061013300128293
Debug: 3884 1992 riscv-013.c:3126 log_memory_access64(): M[0x1212340080] writes 0xfe029ce3fff28293
Debug: 3885 1992 riscv-013.c:3126 log_memory_access64(): M[0x1212340088] writes 0x0243839300000397
Debug: 3886 1992 riscv-013.c:3126 log_memory_access64(): M[0x1212340090] writes 0xfff00293305393f3
Debug: 3887 1992 riscv-013.c:3126 log_memory_access64(): M[0x1212340098] writes 0x7a02907300128293
Debug: 3888 1992 riscv-013.c:3126 log_memory_access64(): M[0x12123400a0] writes 0x7a0023737a101073
Debug: 3889 1992 riscv-013.c:3126 log_memory_access64(): M[0x12123400a8] writes 0x30539073fe6288e3
Debug: 3890 1992 riscv-013.c:3126 log_memory_access64(): M[0x12123400b0] writes 0x8081829330005073
Debug: 3891 1992 riscv-013.c:3126 log_memory_access64(): M[0x12123400b8] writes 0x0062d86382018313
Debug: 3892 1992 riscv-013.c:3126 log_memory_access64(): M[0x12123400c0] writes 0x0012829300028023
Debug: 3893 1992 riscv-013.c:3126 log_memory_access64(): M[0x12123400c8] writes 0x3c90006fff5ff06f
Debug: 3894 1992 riscv-013.c:3126 log_memory_access64(): M[0x12123400d0] writes 0x00113423f0010113
Debug: 3895 1992 riscv-013.c:3126 log_memory_access64(): M[0x12123400d8] writes 0x00313c2300213823
Debug: 3896 1992 riscv-013.c:3126 log_memory_access64(): M[0x12123400e0] writes 0x0251342302413023
Debug: 3897 1992 riscv-013.c:3126 log_memory_access64(): M[0x12123400e8] writes 0x02713c2302613823
Debug: 3898 1992 riscv-013.c:3126 log_memory_access64(): M[0x12123400f0] writes 0x0491342304813023
Debug: 3899 1992 riscv-013.c:3126 log_memory_access64(): M[0x12123400f8] writes 0x04b13c2304a13823
Debug: 3900 1992 riscv-013.c:3126 log_memory_access64(): M[0x1212340100] writes 0x06d1342306c13023
Debug: 3901 1993 riscv-013.c:3126 log_memory_access64(): M[0x1212340108] writes 0x06f13c2306e13823
Debug: 3902 1993 riscv-013.c:3126 log_memory_access64(): M[0x1212340110] writes 0x0911342309013023
Debug: 3903 1993 riscv-013.c:3126 log_memory_access64(): M[0x1212340118] writes 0x09313c2309213823
Debug: 3904 1993 riscv-013.c:3126 log_memory_access64(): M[0x1212340120] writes 0x0b5134230b413023
Debug: 3905 1993 riscv-013.c:3126 log_memory_access64(): M[0x1212340128] writes 0x0b713c230b613823
Debug: 3906 1993 riscv-013.c:3126 log_memory_access64(): M[0x1212340130] writes 0x0d9134230d813023
Debug: 3907 1993 riscv-013.c:3126 log_memory_access64(): M[0x1212340138] writes 0x0db13c230da13823
Debug: 3908 1993 riscv-013.c:3126 log_memory_access64(): M[0x1212340140] writes 0x0fd134230fc13023
Debug: 3909 1993 riscv-013.c:3126 log_memory_access64(): M[0x1212340148] writes 0x0ff13c230fe13823
Debug: 3910 1993 riscv-013.c:3126 log_memory_access64(): M[0x1212340150] writes 0x341025f334202573
Debug: 3911 1993 riscv-013.c:3126 log_memory_access64(): M[0x1212340158] writes 0x275000ef00010613
Debug: 3912 1993 riscv-013.c:3126 log_memory_access64(): M[0x1212340160] writes 0x000022b734151073
Debug: 3913 1993 riscv-013.c:3126 log_memory_access64(): M[0x1212340168] writes 0x3002a0738002829b
Debug: 3914 1993 riscv-013.c:3126 log_memory_access64(): M[0x1212340170] writes 0x0101310300813083
Debug: 3915 1993 riscv-013.c:3126 log_memory_access64(): M[0x1212340178] writes 0x0201320301813183
Debug: 3916 1993 riscv-013.c:3126 log_memory_access64(): M[0x1212340180] writes 0x0301330302813283
Debug: 3917 1993 riscv-013.c:3126 log_memory_access64(): M[0x1212340188] writes 0x0401340303813383
Debug: 3918 1993 riscv-013.c:3126 log_memory_access64(): M[0x1212340190] writes 0x0501350304813483
Debug: 3919 1993 riscv-013.c:3126 log_memory_access64(): M[0x1212340198] writes 0x0601360305813583
Debug: 3920 1993 riscv-013.c:3126 log_memory_access64(): M[0x12123401a0] writes 0x0701370306813683
Debug: 3921 1993 riscv-013.c:3126 log_memory_access64(): M[0x12123401a8] writes 0x0801380307813783
Debug: 3922 1993 riscv-013.c:3126 log_memory_access64(): M[0x12123401b0] writes 0x0901390308813883
Debug: 3923 1993 riscv-013.c:3126 log_memory_access64(): M[0x12123401b8] writes 0x0a013a0309813983
Debug: 3924 1993 riscv-013.c:3126 log_memory_access64(): M[0x12123401c0] writes 0x0b013b030a813a83
Debug: 3925 1993 riscv-013.c:3126 log_memory_access64(): M[0x12123401c8] writes 0x0c013c030b813b83
Debug: 3926 1993 riscv-013.c:3126 log_memory_access64(): M[0x12123401d0] writes 0x0d013d030c813c83
Debug: 3927 1993 riscv-013.c:3126 log_memory_access64(): M[0x12123401d8] writes 0x0e013e030d813d83
Debug: 3928 1993 riscv-013.c:3126 log_memory_access64(): M[0x12123401e0] writes 0x0f013f030e813e83
Debug: 3929 1993 riscv-013.c:3126 log_memory_access64(): M[0x12123401e8] writes 0x100101130f813f83
Debug: 3930 1993 riscv-013.c:3126 log_memory_access64(): M[0x12123401f0] writes 0x0000006f30200073
Debug: 3931 1993 riscv-013.c:3126 log_memory_access64(): M[0x12123401f8] writes 0x6a03031b00018337
Debug: 3932 1993 riscv-013.c:3126 log_memory_access64(): M[0x1212340200] writes 0xfe031ee3fff30313
Debug: 3933 1993 batch.c:291 riscv_batch_run_from(): [riscv.cpu0] Running batch of scans [0, 129)
Debug: 3934 2004 batch.c:264 log_batch(): 40b w 00000297 @05 -> ?; 0i
Debug: 3935 2004 batch.c:199 log_dmi_decoded(): write: 
Debug: 3936 2004 batch.c:264 log_batch(): 40b w 0c80006f @04 -> ?; 4i
Debug: 3937 2004 batch.c:199 log_dmi_decoded(): write: 
Debug: 3938 2004 batch.c:264 log_batch(): 40b w 30529073 @05 -> ?; 0i
Debug: 3939 2004 batch.c:199 log_dmi_decoded(): write: 
Debug: 3940 2004 batch.c:264 log_batch(): 40b w 04428293 @04 -> ?; 4i
Debug: 3941 2004 batch.c:199 log_dmi_decoded(): write: 
Debug: 3942 2004 batch.c:264 log_batch(): 40b w 30102373 @05 -> ?; 0i
Debug: 3943 2004 batch.c:199 log_dmi_decoded(): write: 
Debug: 3944 2004 batch.c:264 log_batch(): 40b w 30005073 @04 -> ?; 0i
Debug: 3945 2004 batch.c:199 log_dmi_decoded(): write: 
Debug: 3946 2004 batch.c:264 log_batch(): 40b w 01439393 @05 -> ?; 0i
Debug: 3947 2004 batch.c:199 log_dmi_decoded(): write: 
Debug: 3948 2004 batch.c:264 log_batch(): 40b w 00100393 @04 -> ?; 0i
Debug: 3949 2004 batch.c:199 log_dmi_decoded(): write: 
Debug: 3950 2004 batch.c:264 log_batch(): 40b w 00701c63 @05 -> ?; 0i
Debug: 3951 2004 batch.c:199 log_dmi_decoded(): write: 
Debug: 3952 2004 batch.c:264 log_batch(): 40b w 007373b3 @04 -> ?; 0i
Debug: 3953 2004 batch.c:199 log_dmi_decoded(): write: 
Debug: 3954 2004 batch.c:264 log_batch(): 40b w 01239393 @05 -> ?; 0i
Debug: 3955 2004 batch.c:199 log_dmi_decoded(): write: 
Debug: 3956 2004 batch.c:264 log_batch(): 40b w 00100393 @04 -> ?; 0i
Debug: 3957 2004 batch.c:199 log_dmi_decoded(): write: 
Debug: 3958 2004 batch.c:264 log_batch(): 40b w 00701463 @05 -> ?; 0i
Debug: 3959 2004 batch.c:199 log_dmi_decoded(): write: 
Debug: 3960 2004 batch.c:264 log_batch(): 40b w 007373b3 @04 -> ?; 0i
Debug: 3961 2004 batch.c:199 log_dmi_decoded(): write: 
Debug: 3962 2004 batch.c:264 log_batch(): 40b w 30305073 @05 -> ?; 0i
Debug: 3963 2004 batch.c:199 log_dmi_decoded(): write: 
Debug: 3964 2004 batch.c:264 log_batch(): 40b w 00c0006f @04 -> ?; 0i
Debug: 3965 2004 batch.c:199 log_dmi_decoded(): write: 
Debug: 3966 2004 batch.c:264 log_batch(): 40b w 30405073 @05 -> ?; 0i
Debug: 3967 2004 batch.c:199 log_dmi_decoded(): write: 
Debug: 3968 2004 batch.c:264 log_batch(): 40b w 30205073 @04 -> ?; 0i
Debug: 3969 2004 batch.c:199 log_dmi_decoded(): write: 
Debug: 3970 2004 batch.c:264 log_batch(): 40b w 08028293 @05 -> ?; 0i
Debug: 3971 2004 batch.c:199 log_dmi_decoded(): write: 
Debug: 3972 2004 batch.c:264 log_batch(): 40b w 00000297 @04 -> ?; 0i
Debug: 3973 2004 batch.c:199 log_dmi_decoded(): write: 
Debug: 3974 2004 batch.c:264 log_batch(): 40b w 30005073 @05 -> ?; 0i
Debug: 3975 2004 batch.c:199 log_dmi_decoded(): write: 
Debug: 3976 2004 batch.c:264 log_batch(): 40b w 30529073 @04 -> ?; 0i
Debug: 3977 2004 batch.c:199 log_dmi_decoded(): write: 
Debug: 3978 2004 batch.c:264 log_batch(): 40b w a3818193 @05 -> ?; 0i
Debug: 3979 2004 batch.c:199 log_dmi_decoded(): write: 
Debug: 3980 2004 batch.c:264 log_batch(): 40b w 00002197 @04 -> ?; 0i
Debug: 3981 2004 batch.c:199 log_dmi_decoded(): write: 
Debug: 3982 2004 batch.c:264 log_batch(): 40b w c8810113 @05 -> ?; 0i
Debug: 3983 2004 batch.c:199 log_dmi_decoded(): write: 
Debug: 3984 2004 batch.c:264 log_batch(): 40b w 00001117 @04 -> ?; 0i
Debug: 3985 2004 batch.c:199 log_dmi_decoded(): write: 
Debug: 3986 2004 batch.c:264 log_batch(): 40b w f14022f3 @05 -> ?; 0i
Debug: 3987 2004 batch.c:199 log_dmi_decoded(): write: 
Debug: 3988 2004 batch.c:264 log_batch(): 40b w 2d000313 @04 -> ?; 0i
Debug: 3989 2004 batch.c:199 log_dmi_decoded(): write: 
Debug: 3990 2004 batch.c:264 log_batch(): 40b w 00610133 @05 -> ?; 0i
Debug: 3991 2004 batch.c:199 log_dmi_decoded(): write: 
Debug: 3992 2004 batch.c:264 log_batch(): 40b w 00128293 @04 -> ?; 0i
Debug: 3993 2004 batch.c:199 log_dmi_decoded(): write: 
Debug: 3994 2004 batch.c:264 log_batch(): 40b w fe029ce3 @05 -> ?; 0i
Debug: 3995 2004 batch.c:199 log_dmi_decoded(): write: 
Debug: 3996 2004 batch.c:264 log_batch(): 40b w fff28293 @04 -> ?; 0i
Debug: 3997 2004 batch.c:199 log_dmi_decoded(): write: 
Debug: 3998 2004 batch.c:264 log_batch(): 40b w 02438393 @05 -> ?; 0i
Debug: 3999 2004 batch.c:199 log_dmi_decoded(): write: 
Debug: 4000 2004 batch.c:264 log_batch(): 40b w 00000397 @04 -> ?; 0i
Debug: 4001 2004 batch.c:199 log_dmi_decoded(): write: 
Debug: 4002 2004 batch.c:264 log_batch(): 40b w fff00293 @05 -> ?; 0i
Debug: 4003 2004 batch.c:199 log_dmi_decoded(): write: 
Debug: 4004 2004 batch.c:264 log_batch(): 40b w 305393f3 @04 -> ?; 0i
Debug: 4005 2004 batch.c:199 log_dmi_decoded(): write: 
Debug: 4006 2004 batch.c:264 log_batch(): 40b w 7a029073 @05 -> ?; 0i
Debug: 4007 2004 batch.c:199 log_dmi_decoded(): write: 
Debug: 4008 2004 batch.c:264 log_batch(): 40b w 00128293 @04 -> ?; 0i
Debug: 4009 2004 batch.c:199 log_dmi_decoded(): write: 
Debug: 4010 2004 batch.c:264 log_batch(): 40b w 7a002373 @05 -> ?; 0i
Debug: 4011 2004 batch.c:199 log_dmi_decoded(): write: 
Debug: 4012 2004 batch.c:264 log_batch(): 40b w 7a101073 @04 -> ?; 0i
Debug: 4013 2004 batch.c:199 log_dmi_decoded(): write: 
Debug: 4014 2004 batch.c:264 log_batch(): 40b w 30539073 @05 -> ?; 0i
Debug: 4015 2004 batch.c:199 log_dmi_decoded(): write: 
Debug: 4016 2004 batch.c:264 log_batch(): 40b w fe6288e3 @04 -> ?; 0i
Debug: 4017 2004 batch.c:199 log_dmi_decoded(): write: 
Debug: 4018 2004 batch.c:264 log_batch(): 40b w 80818293 @05 -> ?; 0i
Debug: 4019 2004 batch.c:199 log_dmi_decoded(): write: 
Debug: 4020 2004 batch.c:264 log_batch(): 40b w 30005073 @04 -> ?; 0i
Debug: 4021 2004 batch.c:199 log_dmi_decoded(): write: 
Debug: 4022 2004 batch.c:264 log_batch(): 40b w 0062d863 @05 -> ?; 0i
Debug: 4023 2004 batch.c:199 log_dmi_decoded(): write: 
Debug: 4024 2004 batch.c:264 log_batch(): 40b w 82018313 @04 -> ?; 0i
Debug: 4025 2004 batch.c:199 log_dmi_decoded(): write: 
Debug: 4026 2004 batch.c:264 log_batch(): 40b w 00128293 @05 -> ?; 0i
Debug: 4027 2004 batch.c:199 log_dmi_decoded(): write: 
Debug: 4028 2004 batch.c:264 log_batch(): 40b w 00028023 @04 -> ?; 0i
Debug: 4029 2004 batch.c:199 log_dmi_decoded(): write: 
Debug: 4030 2004 batch.c:264 log_batch(): 40b w 3c90006f @05 -> ?; 0i
Debug: 4031 2004 batch.c:199 log_dmi_decoded(): write: 
Debug: 4032 2004 batch.c:264 log_batch(): 40b w ff5ff06f @04 -> ?; 0i
Debug: 4033 2004 batch.c:199 log_dmi_decoded(): write: 
Debug: 4034 2004 batch.c:264 log_batch(): 40b w 00113423 @05 -> ?; 0i
Debug: 4035 2004 batch.c:199 log_dmi_decoded(): write: 
Debug: 4036 2004 batch.c:264 log_batch(): 40b w f0010113 @04 -> ?; 0i
Debug: 4037 2004 batch.c:199 log_dmi_decoded(): write: 
Debug: 4038 2004 batch.c:264 log_batch(): 40b w 00313c23 @05 -> ?; 0i
Debug: 4039 2004 batch.c:199 log_dmi_decoded(): write: 
Debug: 4040 2004 batch.c:264 log_batch(): 40b w 00213823 @04 -> ?; 0i
Debug: 4041 2004 batch.c:199 log_dmi_decoded(): write: 
Debug: 4042 2004 batch.c:264 log_batch(): 40b w 02513423 @05 -> ?; 0i
Debug: 4043 2004 batch.c:199 log_dmi_decoded(): write: 
Debug: 4044 2004 batch.c:264 log_batch(): 40b w 02413023 @04 -> ?; 0i
Debug: 4045 2004 batch.c:199 log_dmi_decoded(): write: 
Debug: 4046 2004 batch.c:264 log_batch(): 40b w 02713c23 @05 -> ?; 0i
Debug: 4047 2004 batch.c:199 log_dmi_decoded(): write: 
Debug: 4048 2004 batch.c:264 log_batch(): 40b w 02613823 @04 -> ?; 0i
Debug: 4049 2004 batch.c:199 log_dmi_decoded(): write: 
Debug: 4050 2004 batch.c:264 log_batch(): 40b w 04913423 @05 -> ?; 0i
Debug: 4051 2004 batch.c:199 log_dmi_decoded(): write: 
Debug: 4052 2004 batch.c:264 log_batch(): 40b w 04813023 @04 -> ?; 0i
Debug: 4053 2004 batch.c:199 log_dmi_decoded(): write: 
Debug: 4054 2004 batch.c:264 log_batch(): 40b w 04b13c23 @05 -> ?; 0i
Debug: 4055 2004 batch.c:199 log_dmi_decoded(): write: 
Debug: 4056 2004 batch.c:264 log_batch(): 40b w 04a13823 @04 -> ?; 0i
Debug: 4057 2004 batch.c:199 log_dmi_decoded(): write: 
Debug: 4058 2004 batch.c:264 log_batch(): 40b w 06d13423 @05 -> ?; 0i
Debug: 4059 2004 batch.c:199 log_dmi_decoded(): write: 
Debug: 4060 2004 batch.c:264 log_batch(): 40b w 06c13023 @04 -> ?; 0i
Debug: 4061 2004 batch.c:199 log_dmi_decoded(): write: 
Debug: 4062 2004 batch.c:264 log_batch(): 40b w 06f13c23 @05 -> ?; 0i
Debug: 4063 2004 batch.c:199 log_dmi_decoded(): write: 
Debug: 4064 2004 batch.c:264 log_batch(): 40b w 06e13823 @04 -> ?; 0i
Debug: 4065 2004 batch.c:199 log_dmi_decoded(): write: 
Debug: 4066 2004 batch.c:264 log_batch(): 40b w 09113423 @05 -> ?; 0i
Debug: 4067 2004 batch.c:199 log_dmi_decoded(): write: 
Debug: 4068 2004 batch.c:264 log_batch(): 40b w 09013023 @04 -> ?; 0i
Debug: 4069 2004 batch.c:199 log_dmi_decoded(): write: 
Debug: 4070 2004 batch.c:264 log_batch(): 40b w 09313c23 @05 -> ?; 0i
Debug: 4071 2004 batch.c:199 log_dmi_decoded(): write: 
Debug: 4072 2004 batch.c:264 log_batch(): 40b w 09213823 @04 -> ?; 0i
Debug: 4073 2004 batch.c:199 log_dmi_decoded(): write: 
Debug: 4074 2004 batch.c:264 log_batch(): 40b w 0b513423 @05 -> ?; 0i
Debug: 4075 2004 batch.c:199 log_dmi_decoded(): write: 
Debug: 4076 2004 batch.c:264 log_batch(): 40b w 0b413023 @04 -> ?; 0i
Debug: 4077 2004 batch.c:199 log_dmi_decoded(): write: 
Debug: 4078 2004 batch.c:264 log_batch(): 40b w 0b713c23 @05 -> ?; 0i
Debug: 4079 2004 batch.c:199 log_dmi_decoded(): write: 
Debug: 4080 2004 batch.c:264 log_batch(): 40b w 0b613823 @04 -> ?; 0i
Debug: 4081 2004 batch.c:199 log_dmi_decoded(): write: 
Debug: 4082 2004 batch.c:264 log_batch(): 40b w 0d913423 @05 -> ?; 0i
Debug: 4083 2004 batch.c:199 log_dmi_decoded(): write: 
Debug: 4084 2004 batch.c:264 log_batch(): 40b w 0d813023 @04 -> ?; 0i
Debug: 4085 2004 batch.c:199 log_dmi_decoded(): write: 
Debug: 4086 2004 batch.c:264 log_batch(): 40b w 0db13c23 @05 -> ?; 0i
Debug: 4087 2004 batch.c:199 log_dmi_decoded(): write: 
Debug: 4088 2004 batch.c:264 log_batch(): 40b w 0da13823 @04 -> ?; 0i
Debug: 4089 2004 batch.c:199 log_dmi_decoded(): write: 
Debug: 4090 2004 batch.c:264 log_batch(): 40b w 0fd13423 @05 -> ?; 0i
Debug: 4091 2004 batch.c:199 log_dmi_decoded(): write: 
Debug: 4092 2004 batch.c:264 log_batch(): 40b w 0fc13023 @04 -> ?; 0i
Debug: 4093 2004 batch.c:199 log_dmi_decoded(): write: 
Debug: 4094 2004 batch.c:264 log_batch(): 40b w 0ff13c23 @05 -> ?; 0i
Debug: 4095 2004 batch.c:199 log_dmi_decoded(): write: 
Debug: 4096 2005 batch.c:264 log_batch(): 40b w 0fe13823 @04 -> ?; 0i
Debug: 4097 2005 batch.c:199 log_dmi_decoded(): write: 
Debug: 4098 2005 batch.c:264 log_batch(): 40b w 341025f3 @05 -> ?; 0i
Debug: 4099 2005 batch.c:199 log_dmi_decoded(): write: 
Debug: 4100 2005 batch.c:264 log_batch(): 40b w 34202573 @04 -> ?; 0i
Debug: 4101 2005 batch.c:199 log_dmi_decoded(): write: 
Debug: 4102 2005 batch.c:264 log_batch(): 40b w 275000ef @05 -> ?; 0i
Debug: 4103 2005 batch.c:199 log_dmi_decoded(): write: 
Debug: 4104 2005 batch.c:264 log_batch(): 40b w 00010613 @04 -> ?; 0i
Debug: 4105 2005 batch.c:199 log_dmi_decoded(): write: 
Debug: 4106 2005 batch.c:264 log_batch(): 40b w 000022b7 @05 -> ?; 0i
Debug: 4107 2005 batch.c:199 log_dmi_decoded(): write: 
Debug: 4108 2005 batch.c:264 log_batch(): 40b w 34151073 @04 -> ?; 0i
Debug: 4109 2005 batch.c:199 log_dmi_decoded(): write: 
Debug: 4110 2005 batch.c:264 log_batch(): 40b w 3002a073 @05 -> ?; 0i
Debug: 4111 2005 batch.c:199 log_dmi_decoded(): write: 
Debug: 4112 2005 batch.c:264 log_batch(): 40b w 8002829b @04 -> ?; 0i
Debug: 4113 2005 batch.c:199 log_dmi_decoded(): write: 
Debug: 4114 2005 batch.c:264 log_batch(): 40b w 01013103 @05 -> ?; 0i
Debug: 4115 2005 batch.c:199 log_dmi_decoded(): write: 
Debug: 4116 2005 batch.c:264 log_batch(): 40b w 00813083 @04 -> ?; 0i
Debug: 4117 2005 batch.c:199 log_dmi_decoded(): write: 
Debug: 4118 2005 batch.c:264 log_batch(): 40b w 02013203 @05 -> ?; 0i
Debug: 4119 2005 batch.c:199 log_dmi_decoded(): write: 
Debug: 4120 2005 batch.c:264 log_batch(): 40b w 01813183 @04 -> ?; 0i
Debug: 4121 2005 batch.c:199 log_dmi_decoded(): write: 
Debug: 4122 2005 batch.c:264 log_batch(): 40b w 03013303 @05 -> ?; 0i
Debug: 4123 2005 batch.c:199 log_dmi_decoded(): write: 
Debug: 4124 2005 batch.c:264 log_batch(): 40b w 02813283 @04 -> ?; 0i
Debug: 4125 2005 batch.c:199 log_dmi_decoded(): write: 
Debug: 4126 2005 batch.c:264 log_batch(): 40b w 04013403 @05 -> ?; 0i
Debug: 4127 2005 batch.c:199 log_dmi_decoded(): write: 
Debug: 4128 2005 batch.c:264 log_batch(): 40b w 03813383 @04 -> ?; 0i
Debug: 4129 2005 batch.c:199 log_dmi_decoded(): write: 
Debug: 4130 2005 batch.c:264 log_batch(): 40b w 05013503 @05 -> ?; 0i
Debug: 4131 2005 batch.c:199 log_dmi_decoded(): write: 
Debug: 4132 2005 batch.c:264 log_batch(): 40b w 04813483 @04 -> ?; 0i
Debug: 4133 2005 batch.c:199 log_dmi_decoded(): write: 
Debug: 4134 2005 batch.c:264 log_batch(): 40b w 06013603 @05 -> ?; 0i
Debug: 4135 2005 batch.c:199 log_dmi_decoded(): write: 
Debug: 4136 2005 batch.c:264 log_batch(): 40b w 05813583 @04 -> ?; 0i
Debug: 4137 2005 batch.c:199 log_dmi_decoded(): write: 
Debug: 4138 2005 batch.c:264 log_batch(): 40b w 07013703 @05 -> ?; 0i
Debug: 4139 2005 batch.c:199 log_dmi_decoded(): write: 
Debug: 4140 2005 batch.c:264 log_batch(): 40b w 06813683 @04 -> ?; 0i
Debug: 4141 2005 batch.c:199 log_dmi_decoded(): write: 
Debug: 4142 2005 batch.c:264 log_batch(): 40b w 08013803 @05 -> ?; 0i
Debug: 4143 2005 batch.c:199 log_dmi_decoded(): write: 
Debug: 4144 2005 batch.c:264 log_batch(): 40b w 07813783 @04 -> ?; 0i
Debug: 4145 2005 batch.c:199 log_dmi_decoded(): write: 
Debug: 4146 2005 batch.c:264 log_batch(): 40b w 09013903 @05 -> ?; 0i
Debug: 4147 2005 batch.c:199 log_dmi_decoded(): write: 
Debug: 4148 2005 batch.c:264 log_batch(): 40b w 08813883 @04 -> ?; 0i
Debug: 4149 2005 batch.c:199 log_dmi_decoded(): write: 
Debug: 4150 2005 batch.c:264 log_batch(): 40b w 0a013a03 @05 -> ?; 0i
Debug: 4151 2005 batch.c:199 log_dmi_decoded(): write: 
Debug: 4152 2005 batch.c:264 log_batch(): 40b w 09813983 @04 -> ?; 0i
Debug: 4153 2005 batch.c:199 log_dmi_decoded(): write: 
Debug: 4154 2005 batch.c:264 log_batch(): 40b w 0b013b03 @05 -> ?; 0i
Debug: 4155 2005 batch.c:199 log_dmi_decoded(): write: 
Debug: 4156 2005 batch.c:264 log_batch(): 40b w 0a813a83 @04 -> ?; 0i
Debug: 4157 2005 batch.c:199 log_dmi_decoded(): write: 
Debug: 4158 2005 batch.c:264 log_batch(): 40b w 0c013c03 @05 -> ?; 0i
Debug: 4159 2005 batch.c:199 log_dmi_decoded(): write: 
Debug: 4160 2005 batch.c:264 log_batch(): 40b w 0b813b83 @04 -> ?; 0i
Debug: 4161 2005 batch.c:199 log_dmi_decoded(): write: 
Debug: 4162 2005 batch.c:264 log_batch(): 40b w 0d013d03 @05 -> ?; 0i
Debug: 4163 2005 batch.c:199 log_dmi_decoded(): write: 
Debug: 4164 2005 batch.c:264 log_batch(): 40b w 0c813c83 @04 -> ?; 0i
Debug: 4165 2005 batch.c:199 log_dmi_decoded(): write: 
Debug: 4166 2005 batch.c:264 log_batch(): 40b w 0e013e03 @05 -> ?; 0i
Debug: 4167 2005 batch.c:199 log_dmi_decoded(): write: 
Debug: 4168 2005 batch.c:264 log_batch(): 40b w 0d813d83 @04 -> ?; 0i
Debug: 4169 2005 batch.c:199 log_dmi_decoded(): write: 
Debug: 4170 2005 batch.c:264 log_batch(): 40b w 0f013f03 @05 -> ?; 0i
Debug: 4171 2005 batch.c:199 log_dmi_decoded(): write: 
Debug: 4172 2005 batch.c:264 log_batch(): 40b w 0e813e83 @04 -> ?; 0i
Debug: 4173 2005 batch.c:199 log_dmi_decoded(): write: 
Debug: 4174 2005 batch.c:2